Command: vcs -sverilog -ntb_opts uvm -timescale=1ns/1ps -R -full64 +v2k -debug_access+all \
-l fell.log top.sv
                         Chronologic VCS (TM)
      Version Q-2020.03-SP2-8_Full64 -- Mon Sep 14 22:01:04 2026
               Copyright (c) 1991-2020 by Synopsys Inc.
                         ALL RIGHTS RESERVED

This program is proprietary and confidential information of Synopsys Inc.
and may be used and disclosed only as authorized in a license agreement
controlling such use and disclosure.

Parsing design file '/fetools/synopsys/installed_tools/vcs/vcs/Q-2020.03-SP2-8/etc/uvm/uvm_pkg.sv'
Parsing included file '/fetools/synopsys/installed_tools/vcs/vcs/Q-2020.03-SP2-8/etc/uvm/uvm_macros.svh'.
Parsing included file '/fetools/synopsys/installed_tools/vcs/vcs/Q-2020.03-SP2-8/etc/uvm/macros/uvm_version_defines.svh'.
Back to file '/fetools/synopsys/installed_tools/vcs/vcs/Q-2020.03-SP2-8/etc/uvm/uvm_macros.svh'.
Parsing included file '/fetools/synopsys/installed_tools/vcs/vcs/Q-2020.03-SP2-8/etc/uvm/macros/snps_macros.svp'.
Back to file '/fetools/synopsys/installed_tools/vcs/vcs/Q-2020.03-SP2-8/etc/uvm/uvm_macros.svh'.
Parsing included file '/fetools/synopsys/installed_tools/vcs/vcs/Q-2020.03-SP2-8/etc/uvm/macros/uvm_message_defines.svh'.
Back to file '/fetools/synopsys/installed_tools/vcs/vcs/Q-2020.03-SP2-8/etc/uvm/uvm_macros.svh'.
Parsing included file '/fetools/synopsys/installed_tools/vcs/vcs/Q-2020.03-SP2-8/etc/uvm/macros/uvm_phase_defines.svh'.
Back to file '/fetools/synopsys/installed_tools/vcs/vcs/Q-2020.03-SP2-8/etc/uvm/uvm_macros.svh'.
Parsing included file '/fetools/synopsys/installed_tools/vcs/vcs/Q-2020.03-SP2-8/etc/uvm/macros/uvm_object_defines.svh'.
Back to file '/fetools/synopsys/installed_tools/vcs/vcs/Q-2020.03-SP2-8/etc/uvm/uvm_macros.svh'.
Parsing included file '/fetools/synopsys/installed_tools/vcs/vcs/Q-2020.03-SP2-8/etc/uvm/macros/uvm_printer_defines.svh'.
Back to file '/fetools/synopsys/installed_tools/vcs/vcs/Q-2020.03-SP2-8/etc/uvm/uvm_macros.svh'.
Parsing included file '/fetools/synopsys/installed_tools/vcs/vcs/Q-2020.03-SP2-8/etc/uvm/macros/uvm_tlm_defines.svh'.
Parsing included file '/fetools/synopsys/installed_tools/vcs/vcs/Q-2020.03-SP2-8/etc/uvm/tlm1/uvm_tlm_imps.svh'.
Back to file '/fetools/synopsys/installed_tools/vcs/vcs/Q-2020.03-SP2-8/etc/uvm/macros/uvm_tlm_defines.svh'.
Back to file '/fetools/synopsys/installed_tools/vcs/vcs/Q-2020.03-SP2-8/etc/uvm/uvm_macros.svh'.
Parsing included file '/fetools/synopsys/installed_tools/vcs/vcs/Q-2020.03-SP2-8/etc/uvm/macros/uvm_sequence_defines.svh'.
Back to file '/fetools/synopsys/installed_tools/vcs/vcs/Q-2020.03-SP2-8/etc/uvm/uvm_macros.svh'.
Parsing included file '/fetools/synopsys/installed_tools/vcs/vcs/Q-2020.03-SP2-8/etc/uvm/macros/uvm_callback_defines.svh'.
Back to file '/fetools/synopsys/installed_tools/vcs/vcs/Q-2020.03-SP2-8/etc/uvm/uvm_macros.svh'.
Parsing included file '/fetools/synopsys/installed_tools/vcs/vcs/Q-2020.03-SP2-8/etc/uvm/macros/uvm_reg_defines.svh'.
Back to file '/fetools/synopsys/installed_tools/vcs/vcs/Q-2020.03-SP2-8/etc/uvm/uvm_macros.svh'.
Parsing included file '/fetools/synopsys/installed_tools/vcs/vcs/Q-2020.03-SP2-8/etc/uvm/macros/uvm_deprecated_defines.svh'.
Back to file '/fetools/synopsys/installed_tools/vcs/vcs/Q-2020.03-SP2-8/etc/uvm/uvm_macros.svh'.
Back to file '/fetools/synopsys/installed_tools/vcs/vcs/Q-2020.03-SP2-8/etc/uvm/uvm_pkg.sv'.
Parsing included file '/fetools/synopsys/installed_tools/vcs/vcs/Q-2020.03-SP2-8/etc/uvm/directc/uvm_directc.svh'.
Parsing included file '/fetools/synopsys/installed_tools/vcs/vcs/Q-2020.03-SP2-8/etc/uvm/directc/uvm_seed.vh'.
Back to file '/fetools/synopsys/installed_tools/vcs/vcs/Q-2020.03-SP2-8/etc/uvm/directc/uvm_directc.svh'.
Back to file '/fetools/synopsys/installed_tools/vcs/vcs/Q-2020.03-SP2-8/etc/uvm/uvm_pkg.sv'.
Parsing included file '/fetools/synopsys/installed_tools/vcs/vcs/Q-2020.03-SP2-8/etc/uvm/dpi/uvm_dpi.svh'.
Parsing included file '/fetools/synopsys/installed_tools/vcs/vcs/Q-2020.03-SP2-8/etc/uvm/dpi/uvm_hdl.svh'.
Back to file '/fetools/synopsys/installed_tools/vcs/vcs/Q-2020.03-SP2-8/etc/uvm/dpi/uvm_dpi.svh'.
Parsing included file '/fetools/synopsys/installed_tools/vcs/vcs/Q-2020.03-SP2-8/etc/uvm/dpi/uvm_svcmd_dpi.svh'.
Back to file '/fetools/synopsys/installed_tools/vcs/vcs/Q-2020.03-SP2-8/etc/uvm/dpi/uvm_dpi.svh'.
Parsing included file '/fetools/synopsys/installed_tools/vcs/vcs/Q-2020.03-SP2-8/etc/uvm/dpi/uvm_regex.svh'.
Back to file '/fetools/synopsys/installed_tools/vcs/vcs/Q-2020.03-SP2-8/etc/uvm/dpi/uvm_dpi.svh'.
Back to file '/fetools/synopsys/installed_tools/vcs/vcs/Q-2020.03-SP2-8/etc/uvm/uvm_pkg.sv'.
Parsing included file '/fetools/synopsys/installed_tools/vcs/vcs/Q-2020.03-SP2-8/etc/uvm/base/uvm_base.svh'.
Parsing included file '/fetools/synopsys/installed_tools/vcs/vcs/Q-2020.03-SP2-8/etc/uvm/base/uvm_version.svh'.
Back to file '/fetools/synopsys/installed_tools/vcs/vcs/Q-2020.03-SP2-8/etc/uvm/base/uvm_base.svh'.
Parsing included file '/fetools/synopsys/installed_tools/vcs/vcs/Q-2020.03-SP2-8/etc/uvm/base/uvm_object_globals.svh'.
Back to file '/fetools/synopsys/installed_tools/vcs/vcs/Q-2020.03-SP2-8/etc/uvm/base/uvm_base.svh'.
Parsing included file '/fetools/synopsys/installed_tools/vcs/vcs/Q-2020.03-SP2-8/etc/uvm/base/uvm_misc.svh'.
Back to file '/fetools/synopsys/installed_tools/vcs/vcs/Q-2020.03-SP2-8/etc/uvm/base/uvm_base.svh'.
Parsing included file '/fetools/synopsys/installed_tools/vcs/vcs/Q-2020.03-SP2-8/etc/uvm/base/uvm_object.svh'.
Back to file '/fetools/synopsys/installed_tools/vcs/vcs/Q-2020.03-SP2-8/etc/uvm/base/uvm_base.svh'.
Parsing included file '/fetools/synopsys/installed_tools/vcs/vcs/Q-2020.03-SP2-8/etc/uvm/base/uvm_pool.svh'.
Back to file '/fetools/synopsys/installed_tools/vcs/vcs/Q-2020.03-SP2-8/etc/uvm/base/uvm_base.svh'.
Parsing included file '/fetools/synopsys/installed_tools/vcs/vcs/Q-2020.03-SP2-8/etc/uvm/base/uvm_queue.svh'.
Back to file '/fetools/synopsys/installed_tools/vcs/vcs/Q-2020.03-SP2-8/etc/uvm/base/uvm_base.svh'.
Parsing included file '/fetools/synopsys/installed_tools/vcs/vcs/Q-2020.03-SP2-8/etc/uvm/base/uvm_factory.svh'.
Back to file '/fetools/synopsys/installed_tools/vcs/vcs/Q-2020.03-SP2-8/etc/uvm/base/uvm_base.svh'.
Parsing included file '/fetools/synopsys/installed_tools/vcs/vcs/Q-2020.03-SP2-8/etc/uvm/base/uvm_registry.svh'.
Back to file '/fetools/synopsys/installed_tools/vcs/vcs/Q-2020.03-SP2-8/etc/uvm/base/uvm_base.svh'.
Parsing included file '/fetools/synopsys/installed_tools/vcs/vcs/Q-2020.03-SP2-8/etc/uvm/base/uvm_spell_chkr.svh'.
Back to file '/fetools/synopsys/installed_tools/vcs/vcs/Q-2020.03-SP2-8/etc/uvm/base/uvm_base.svh'.
Parsing included file '/fetools/synopsys/installed_tools/vcs/vcs/Q-2020.03-SP2-8/etc/uvm/base/uvm_resource.svh'.
Back to file '/fetools/synopsys/installed_tools/vcs/vcs/Q-2020.03-SP2-8/etc/uvm/base/uvm_base.svh'.
Parsing included file '/fetools/synopsys/installed_tools/vcs/vcs/Q-2020.03-SP2-8/etc/uvm/deprecated/uvm_resource_converter.svh'.
Back to file '/fetools/synopsys/installed_tools/vcs/vcs/Q-2020.03-SP2-8/etc/uvm/base/uvm_base.svh'.
Parsing included file '/fetools/synopsys/installed_tools/vcs/vcs/Q-2020.03-SP2-8/etc/uvm/base/uvm_resource_specializations.svh'.
Back to file '/fetools/synopsys/installed_tools/vcs/vcs/Q-2020.03-SP2-8/etc/uvm/base/uvm_base.svh'.
Parsing included file '/fetools/synopsys/installed_tools/vcs/vcs/Q-2020.03-SP2-8/etc/uvm/base/uvm_resource_db.svh'.
Back to file '/fetools/synopsys/installed_tools/vcs/vcs/Q-2020.03-SP2-8/etc/uvm/base/uvm_base.svh'.
Parsing included file '/fetools/synopsys/installed_tools/vcs/vcs/Q-2020.03-SP2-8/etc/uvm/base/uvm_config_db.svh'.
Back to file '/fetools/synopsys/installed_tools/vcs/vcs/Q-2020.03-SP2-8/etc/uvm/base/uvm_base.svh'.
Parsing included file '/fetools/synopsys/installed_tools/vcs/vcs/Q-2020.03-SP2-8/etc/uvm/base/uvm_printer.svh'.
Back to file '/fetools/synopsys/installed_tools/vcs/vcs/Q-2020.03-SP2-8/etc/uvm/base/uvm_base.svh'.
Parsing included file '/fetools/synopsys/installed_tools/vcs/vcs/Q-2020.03-SP2-8/etc/uvm/base/uvm_comparer.svh'.
Back to file '/fetools/synopsys/installed_tools/vcs/vcs/Q-2020.03-SP2-8/etc/uvm/base/uvm_base.svh'.
Parsing included file '/fetools/synopsys/installed_tools/vcs/vcs/Q-2020.03-SP2-8/etc/uvm/base/uvm_packer.svh'.
Back to file '/fetools/synopsys/installed_tools/vcs/vcs/Q-2020.03-SP2-8/etc/uvm/base/uvm_base.svh'.
Parsing included file '/fetools/synopsys/installed_tools/vcs/vcs/Q-2020.03-SP2-8/etc/uvm/base/uvm_recorder.svh'.
Back to file '/fetools/synopsys/installed_tools/vcs/vcs/Q-2020.03-SP2-8/etc/uvm/base/uvm_base.svh'.
Parsing included file '/fetools/synopsys/installed_tools/vcs/vcs/Q-2020.03-SP2-8/etc/uvm/base/uvm_event_callback.svh'.
Back to file '/fetools/synopsys/installed_tools/vcs/vcs/Q-2020.03-SP2-8/etc/uvm/base/uvm_base.svh'.
Parsing included file '/fetools/synopsys/installed_tools/vcs/vcs/Q-2020.03-SP2-8/etc/uvm/base/uvm_event.svh'.
Back to file '/fetools/synopsys/installed_tools/vcs/vcs/Q-2020.03-SP2-8/etc/uvm/base/uvm_base.svh'.
Parsing included file '/fetools/synopsys/installed_tools/vcs/vcs/Q-2020.03-SP2-8/etc/uvm/base/uvm_barrier.svh'.
Back to file '/fetools/synopsys/installed_tools/vcs/vcs/Q-2020.03-SP2-8/etc/uvm/base/uvm_base.svh'.
Parsing included file '/fetools/synopsys/installed_tools/vcs/vcs/Q-2020.03-SP2-8/etc/uvm/base/uvm_callback.svh'.
Parsing included file '/fetools/synopsys/installed_tools/vcs/vcs/Q-2020.03-SP2-8/etc/uvm/uvm_macros.svh'.
Back to file '/fetools/synopsys/installed_tools/vcs/vcs/Q-2020.03-SP2-8/etc/uvm/base/uvm_callback.svh'.
Back to file '/fetools/synopsys/installed_tools/vcs/vcs/Q-2020.03-SP2-8/etc/uvm/base/uvm_base.svh'.
Parsing included file '/fetools/synopsys/installed_tools/vcs/vcs/Q-2020.03-SP2-8/etc/uvm/base/uvm_report_catcher.svh'.
Back to file '/fetools/synopsys/installed_tools/vcs/vcs/Q-2020.03-SP2-8/etc/uvm/base/uvm_base.svh'.
Parsing included file '/fetools/synopsys/installed_tools/vcs/vcs/Q-2020.03-SP2-8/etc/uvm/base/uvm_report_server.svh'.
Back to file '/fetools/synopsys/installed_tools/vcs/vcs/Q-2020.03-SP2-8/etc/uvm/base/uvm_base.svh'.
Parsing included file '/fetools/synopsys/installed_tools/vcs/vcs/Q-2020.03-SP2-8/etc/uvm/base/uvm_report_handler.svh'.
Back to file '/fetools/synopsys/installed_tools/vcs/vcs/Q-2020.03-SP2-8/etc/uvm/base/uvm_base.svh'.
Parsing included file '/fetools/synopsys/installed_tools/vcs/vcs/Q-2020.03-SP2-8/etc/uvm/base/uvm_report_object.svh'.
Back to file '/fetools/synopsys/installed_tools/vcs/vcs/Q-2020.03-SP2-8/etc/uvm/base/uvm_base.svh'.
Parsing included file '/fetools/synopsys/installed_tools/vcs/vcs/Q-2020.03-SP2-8/etc/uvm/base/uvm_transaction.svh'.
Back to file '/fetools/synopsys/installed_tools/vcs/vcs/Q-2020.03-SP2-8/etc/uvm/base/uvm_base.svh'.
Parsing included file '/fetools/synopsys/installed_tools/vcs/vcs/Q-2020.03-SP2-8/etc/uvm/base/uvm_phase.svh'.
Back to file '/fetools/synopsys/installed_tools/vcs/vcs/Q-2020.03-SP2-8/etc/uvm/base/uvm_base.svh'.
Parsing included file '/fetools/synopsys/installed_tools/vcs/vcs/Q-2020.03-SP2-8/etc/uvm/base/uvm_domain.svh'.
Back to file '/fetools/synopsys/installed_tools/vcs/vcs/Q-2020.03-SP2-8/etc/uvm/base/uvm_base.svh'.
Parsing included file '/fetools/synopsys/installed_tools/vcs/vcs/Q-2020.03-SP2-8/etc/uvm/base/uvm_bottomup_phase.svh'.
Back to file '/fetools/synopsys/installed_tools/vcs/vcs/Q-2020.03-SP2-8/etc/uvm/base/uvm_base.svh'.
Parsing included file '/fetools/synopsys/installed_tools/vcs/vcs/Q-2020.03-SP2-8/etc/uvm/base/uvm_topdown_phase.svh'.
Back to file '/fetools/synopsys/installed_tools/vcs/vcs/Q-2020.03-SP2-8/etc/uvm/base/uvm_base.svh'.
Parsing included file '/fetools/synopsys/installed_tools/vcs/vcs/Q-2020.03-SP2-8/etc/uvm/base/uvm_task_phase.svh'.
Back to file '/fetools/synopsys/installed_tools/vcs/vcs/Q-2020.03-SP2-8/etc/uvm/base/uvm_base.svh'.
Parsing included file '/fetools/synopsys/installed_tools/vcs/vcs/Q-2020.03-SP2-8/etc/uvm/base/uvm_common_phases.svh'.
Back to file '/fetools/synopsys/installed_tools/vcs/vcs/Q-2020.03-SP2-8/etc/uvm/base/uvm_base.svh'.
Parsing included file '/fetools/synopsys/installed_tools/vcs/vcs/Q-2020.03-SP2-8/etc/uvm/base/uvm_runtime_phases.svh'.
Back to file '/fetools/synopsys/installed_tools/vcs/vcs/Q-2020.03-SP2-8/etc/uvm/base/uvm_base.svh'.
Parsing included file '/fetools/synopsys/installed_tools/vcs/vcs/Q-2020.03-SP2-8/etc/uvm/base/uvm_component.svh'.
Parsing included file '/fetools/synopsys/installed_tools/vcs/vcs/Q-2020.03-SP2-8/etc/uvm/base/uvm_root.svh'.
Back to file '/fetools/synopsys/installed_tools/vcs/vcs/Q-2020.03-SP2-8/etc/uvm/base/uvm_component.svh'.
Back to file '/fetools/synopsys/installed_tools/vcs/vcs/Q-2020.03-SP2-8/etc/uvm/base/uvm_base.svh'.
Parsing included file '/fetools/synopsys/installed_tools/vcs/vcs/Q-2020.03-SP2-8/etc/uvm/base/uvm_objection.svh'.
Back to file '/fetools/synopsys/installed_tools/vcs/vcs/Q-2020.03-SP2-8/etc/uvm/base/uvm_base.svh'.
Parsing included file '/fetools/synopsys/installed_tools/vcs/vcs/Q-2020.03-SP2-8/etc/uvm/base/uvm_heartbeat.svh'.
Back to file '/fetools/synopsys/installed_tools/vcs/vcs/Q-2020.03-SP2-8/etc/uvm/base/uvm_base.svh'.
Parsing included file '/fetools/synopsys/installed_tools/vcs/vcs/Q-2020.03-SP2-8/etc/uvm/base/uvm_globals.svh'.
Back to file '/fetools/synopsys/installed_tools/vcs/vcs/Q-2020.03-SP2-8/etc/uvm/base/uvm_base.svh'.
Parsing included file '/fetools/synopsys/installed_tools/vcs/vcs/Q-2020.03-SP2-8/etc/uvm/base/uvm_cmdline_processor.svh'.
Back to file '/fetools/synopsys/installed_tools/vcs/vcs/Q-2020.03-SP2-8/etc/uvm/base/uvm_base.svh'.
Back to file '/fetools/synopsys/installed_tools/vcs/vcs/Q-2020.03-SP2-8/etc/uvm/uvm_pkg.sv'.
Parsing included file '/fetools/synopsys/installed_tools/vcs/vcs/Q-2020.03-SP2-8/etc/uvm/tlm1/uvm_tlm.svh'.
Parsing included file '/fetools/synopsys/installed_tools/vcs/vcs/Q-2020.03-SP2-8/etc/uvm/tlm1/uvm_tlm_ifs.svh'.
Back to file '/fetools/synopsys/installed_tools/vcs/vcs/Q-2020.03-SP2-8/etc/uvm/tlm1/uvm_tlm.svh'.
Parsing included file '/fetools/synopsys/installed_tools/vcs/vcs/Q-2020.03-SP2-8/etc/uvm/tlm1/uvm_sqr_ifs.svh'.
Back to file '/fetools/synopsys/installed_tools/vcs/vcs/Q-2020.03-SP2-8/etc/uvm/tlm1/uvm_tlm.svh'.
Parsing included file '/fetools/synopsys/installed_tools/vcs/vcs/Q-2020.03-SP2-8/etc/uvm/base/uvm_port_base.svh'.
Back to file '/fetools/synopsys/installed_tools/vcs/vcs/Q-2020.03-SP2-8/etc/uvm/tlm1/uvm_tlm.svh'.
Parsing included file '/fetools/synopsys/installed_tools/vcs/vcs/Q-2020.03-SP2-8/etc/uvm/tlm1/uvm_tlm_imps.svh'.
Back to file '/fetools/synopsys/installed_tools/vcs/vcs/Q-2020.03-SP2-8/etc/uvm/tlm1/uvm_tlm.svh'.
Parsing included file '/fetools/synopsys/installed_tools/vcs/vcs/Q-2020.03-SP2-8/etc/uvm/tlm1/uvm_imps.svh'.
Back to file '/fetools/synopsys/installed_tools/vcs/vcs/Q-2020.03-SP2-8/etc/uvm/tlm1/uvm_tlm.svh'.
Parsing included file '/fetools/synopsys/installed_tools/vcs/vcs/Q-2020.03-SP2-8/etc/uvm/tlm1/uvm_ports.svh'.
Back to file '/fetools/synopsys/installed_tools/vcs/vcs/Q-2020.03-SP2-8/etc/uvm/tlm1/uvm_tlm.svh'.
Parsing included file '/fetools/synopsys/installed_tools/vcs/vcs/Q-2020.03-SP2-8/etc/uvm/tlm1/uvm_exports.svh'.
Back to file '/fetools/synopsys/installed_tools/vcs/vcs/Q-2020.03-SP2-8/etc/uvm/tlm1/uvm_tlm.svh'.
Parsing included file '/fetools/synopsys/installed_tools/vcs/vcs/Q-2020.03-SP2-8/etc/uvm/tlm1/uvm_analysis_port.svh'.
Back to file '/fetools/synopsys/installed_tools/vcs/vcs/Q-2020.03-SP2-8/etc/uvm/tlm1/uvm_tlm.svh'.
Parsing included file '/fetools/synopsys/installed_tools/vcs/vcs/Q-2020.03-SP2-8/etc/uvm/tlm1/uvm_tlm_fifo_base.svh'.
Back to file '/fetools/synopsys/installed_tools/vcs/vcs/Q-2020.03-SP2-8/etc/uvm/tlm1/uvm_tlm.svh'.
Parsing included file '/fetools/synopsys/installed_tools/vcs/vcs/Q-2020.03-SP2-8/etc/uvm/tlm1/uvm_tlm_fifos.svh'.
Back to file '/fetools/synopsys/installed_tools/vcs/vcs/Q-2020.03-SP2-8/etc/uvm/tlm1/uvm_tlm.svh'.
Parsing included file '/fetools/synopsys/installed_tools/vcs/vcs/Q-2020.03-SP2-8/etc/uvm/tlm1/uvm_tlm_req_rsp.svh'.
Back to file '/fetools/synopsys/installed_tools/vcs/vcs/Q-2020.03-SP2-8/etc/uvm/tlm1/uvm_tlm.svh'.
Parsing included file '/fetools/synopsys/installed_tools/vcs/vcs/Q-2020.03-SP2-8/etc/uvm/tlm1/uvm_sqr_connections.svh'.
Back to file '/fetools/synopsys/installed_tools/vcs/vcs/Q-2020.03-SP2-8/etc/uvm/tlm1/uvm_tlm.svh'.
Back to file '/fetools/synopsys/installed_tools/vcs/vcs/Q-2020.03-SP2-8/etc/uvm/uvm_pkg.sv'.
Parsing included file '/fetools/synopsys/installed_tools/vcs/vcs/Q-2020.03-SP2-8/etc/uvm/comps/uvm_comps.svh'.
Parsing included file '/fetools/synopsys/installed_tools/vcs/vcs/Q-2020.03-SP2-8/etc/uvm/comps/uvm_pair.svh'.
Back to file '/fetools/synopsys/installed_tools/vcs/vcs/Q-2020.03-SP2-8/etc/uvm/comps/uvm_comps.svh'.
Parsing included file '/fetools/synopsys/installed_tools/vcs/vcs/Q-2020.03-SP2-8/etc/uvm/comps/uvm_policies.svh'.
Back to file '/fetools/synopsys/installed_tools/vcs/vcs/Q-2020.03-SP2-8/etc/uvm/comps/uvm_comps.svh'.
Parsing included file '/fetools/synopsys/installed_tools/vcs/vcs/Q-2020.03-SP2-8/etc/uvm/comps/uvm_in_order_comparator.svh'.
Back to file '/fetools/synopsys/installed_tools/vcs/vcs/Q-2020.03-SP2-8/etc/uvm/comps/uvm_comps.svh'.
Parsing included file '/fetools/synopsys/installed_tools/vcs/vcs/Q-2020.03-SP2-8/etc/uvm/comps/uvm_algorithmic_comparator.svh'.
Back to file '/fetools/synopsys/installed_tools/vcs/vcs/Q-2020.03-SP2-8/etc/uvm/comps/uvm_comps.svh'.
Parsing included file '/fetools/synopsys/installed_tools/vcs/vcs/Q-2020.03-SP2-8/etc/uvm/comps/uvm_random_stimulus.svh'.
Back to file '/fetools/synopsys/installed_tools/vcs/vcs/Q-2020.03-SP2-8/etc/uvm/comps/uvm_comps.svh'.
Parsing included file '/fetools/synopsys/installed_tools/vcs/vcs/Q-2020.03-SP2-8/etc/uvm/comps/uvm_subscriber.svh'.
Back to file '/fetools/synopsys/installed_tools/vcs/vcs/Q-2020.03-SP2-8/etc/uvm/comps/uvm_comps.svh'.
Parsing included file '/fetools/synopsys/installed_tools/vcs/vcs/Q-2020.03-SP2-8/etc/uvm/comps/uvm_monitor.svh'.
Back to file '/fetools/synopsys/installed_tools/vcs/vcs/Q-2020.03-SP2-8/etc/uvm/comps/uvm_comps.svh'.
Parsing included file '/fetools/synopsys/installed_tools/vcs/vcs/Q-2020.03-SP2-8/etc/uvm/comps/uvm_driver.svh'.
Back to file '/fetools/synopsys/installed_tools/vcs/vcs/Q-2020.03-SP2-8/etc/uvm/comps/uvm_comps.svh'.
Parsing included file '/fetools/synopsys/installed_tools/vcs/vcs/Q-2020.03-SP2-8/etc/uvm/comps/uvm_push_driver.svh'.
Back to file '/fetools/synopsys/installed_tools/vcs/vcs/Q-2020.03-SP2-8/etc/uvm/comps/uvm_comps.svh'.
Parsing included file '/fetools/synopsys/installed_tools/vcs/vcs/Q-2020.03-SP2-8/etc/uvm/comps/uvm_scoreboard.svh'.
Back to file '/fetools/synopsys/installed_tools/vcs/vcs/Q-2020.03-SP2-8/etc/uvm/comps/uvm_comps.svh'.
Parsing included file '/fetools/synopsys/installed_tools/vcs/vcs/Q-2020.03-SP2-8/etc/uvm/comps/uvm_agent.svh'.
Back to file '/fetools/synopsys/installed_tools/vcs/vcs/Q-2020.03-SP2-8/etc/uvm/comps/uvm_comps.svh'.
Parsing included file '/fetools/synopsys/installed_tools/vcs/vcs/Q-2020.03-SP2-8/etc/uvm/comps/uvm_env.svh'.
Back to file '/fetools/synopsys/installed_tools/vcs/vcs/Q-2020.03-SP2-8/etc/uvm/comps/uvm_comps.svh'.
Parsing included file '/fetools/synopsys/installed_tools/vcs/vcs/Q-2020.03-SP2-8/etc/uvm/comps/uvm_test.svh'.
Back to file '/fetools/synopsys/installed_tools/vcs/vcs/Q-2020.03-SP2-8/etc/uvm/comps/uvm_comps.svh'.
Back to file '/fetools/synopsys/installed_tools/vcs/vcs/Q-2020.03-SP2-8/etc/uvm/uvm_pkg.sv'.
Parsing included file '/fetools/synopsys/installed_tools/vcs/vcs/Q-2020.03-SP2-8/etc/uvm/seq/uvm_seq.svh'.
Parsing included file '/fetools/synopsys/installed_tools/vcs/vcs/Q-2020.03-SP2-8/etc/uvm/seq/uvm_sequence_item.svh'.
Back to file '/fetools/synopsys/installed_tools/vcs/vcs/Q-2020.03-SP2-8/etc/uvm/seq/uvm_seq.svh'.
Parsing included file '/fetools/synopsys/installed_tools/vcs/vcs/Q-2020.03-SP2-8/etc/uvm/seq/uvm_sequencer_base.svh'.
Back to file '/fetools/synopsys/installed_tools/vcs/vcs/Q-2020.03-SP2-8/etc/uvm/seq/uvm_seq.svh'.
Parsing included file '/fetools/synopsys/installed_tools/vcs/vcs/Q-2020.03-SP2-8/etc/uvm/seq/uvm_sequencer_analysis_fifo.svh'.
Back to file '/fetools/synopsys/installed_tools/vcs/vcs/Q-2020.03-SP2-8/etc/uvm/seq/uvm_seq.svh'.
Parsing included file '/fetools/synopsys/installed_tools/vcs/vcs/Q-2020.03-SP2-8/etc/uvm/seq/uvm_sequencer_param_base.svh'.
Back to file '/fetools/synopsys/installed_tools/vcs/vcs/Q-2020.03-SP2-8/etc/uvm/seq/uvm_seq.svh'.
Parsing included file '/fetools/synopsys/installed_tools/vcs/vcs/Q-2020.03-SP2-8/etc/uvm/seq/uvm_sequencer.svh'.
Back to file '/fetools/synopsys/installed_tools/vcs/vcs/Q-2020.03-SP2-8/etc/uvm/seq/uvm_seq.svh'.
Parsing included file '/fetools/synopsys/installed_tools/vcs/vcs/Q-2020.03-SP2-8/etc/uvm/seq/uvm_push_sequencer.svh'.
Back to file '/fetools/synopsys/installed_tools/vcs/vcs/Q-2020.03-SP2-8/etc/uvm/seq/uvm_seq.svh'.
Parsing included file '/fetools/synopsys/installed_tools/vcs/vcs/Q-2020.03-SP2-8/etc/uvm/seq/uvm_sequence_base.svh'.
Back to file '/fetools/synopsys/installed_tools/vcs/vcs/Q-2020.03-SP2-8/etc/uvm/seq/uvm_seq.svh'.
Parsing included file '/fetools/synopsys/installed_tools/vcs/vcs/Q-2020.03-SP2-8/etc/uvm/seq/uvm_sequence.svh'.
Back to file '/fetools/synopsys/installed_tools/vcs/vcs/Q-2020.03-SP2-8/etc/uvm/seq/uvm_seq.svh'.
Parsing included file '/fetools/synopsys/installed_tools/vcs/vcs/Q-2020.03-SP2-8/etc/uvm/seq/uvm_sequence_library.svh'.
Back to file '/fetools/synopsys/installed_tools/vcs/vcs/Q-2020.03-SP2-8/etc/uvm/seq/uvm_seq.svh'.
Parsing included file '/fetools/synopsys/installed_tools/vcs/vcs/Q-2020.03-SP2-8/etc/uvm/seq/uvm_sequence_builtin.svh'.
Back to file '/fetools/synopsys/installed_tools/vcs/vcs/Q-2020.03-SP2-8/etc/uvm/seq/uvm_seq.svh'.
Back to file '/fetools/synopsys/installed_tools/vcs/vcs/Q-2020.03-SP2-8/etc/uvm/uvm_pkg.sv'.
Parsing included file '/fetools/synopsys/installed_tools/vcs/vcs/Q-2020.03-SP2-8/etc/uvm/tlm2/uvm_tlm2.svh'.
Parsing included file '/fetools/synopsys/installed_tools/vcs/vcs/Q-2020.03-SP2-8/etc/uvm/tlm2/uvm_tlm2_defines.svh'.
Back to file '/fetools/synopsys/installed_tools/vcs/vcs/Q-2020.03-SP2-8/etc/uvm/tlm2/uvm_tlm2.svh'.
Parsing included file '/fetools/synopsys/installed_tools/vcs/vcs/Q-2020.03-SP2-8/etc/uvm/tlm2/uvm_tlm2_time.svh'.
Back to file '/fetools/synopsys/installed_tools/vcs/vcs/Q-2020.03-SP2-8/etc/uvm/tlm2/uvm_tlm2.svh'.
Parsing included file '/fetools/synopsys/installed_tools/vcs/vcs/Q-2020.03-SP2-8/etc/uvm/tlm2/uvm_tlm2_generic_payload.svh'.
Back to file '/fetools/synopsys/installed_tools/vcs/vcs/Q-2020.03-SP2-8/etc/uvm/tlm2/uvm_tlm2.svh'.
Parsing included file '/fetools/synopsys/installed_tools/vcs/vcs/Q-2020.03-SP2-8/etc/uvm/tlm2/uvm_tlm2_ifs.svh'.
Back to file '/fetools/synopsys/installed_tools/vcs/vcs/Q-2020.03-SP2-8/etc/uvm/tlm2/uvm_tlm2.svh'.
Parsing included file '/fetools/synopsys/installed_tools/vcs/vcs/Q-2020.03-SP2-8/etc/uvm/tlm2/uvm_tlm2_imps.svh'.
Back to file '/fetools/synopsys/installed_tools/vcs/vcs/Q-2020.03-SP2-8/etc/uvm/tlm2/uvm_tlm2.svh'.
Parsing included file '/fetools/synopsys/installed_tools/vcs/vcs/Q-2020.03-SP2-8/etc/uvm/tlm2/uvm_tlm2_ports.svh'.
Back to file '/fetools/synopsys/installed_tools/vcs/vcs/Q-2020.03-SP2-8/etc/uvm/tlm2/uvm_tlm2.svh'.
Parsing included file '/fetools/synopsys/installed_tools/vcs/vcs/Q-2020.03-SP2-8/etc/uvm/tlm2/uvm_tlm2_exports.svh'.
Back to file '/fetools/synopsys/installed_tools/vcs/vcs/Q-2020.03-SP2-8/etc/uvm/tlm2/uvm_tlm2.svh'.
Parsing included file '/fetools/synopsys/installed_tools/vcs/vcs/Q-2020.03-SP2-8/etc/uvm/tlm2/uvm_tlm2_sockets_base.svh'.
Back to file '/fetools/synopsys/installed_tools/vcs/vcs/Q-2020.03-SP2-8/etc/uvm/tlm2/uvm_tlm2.svh'.
Parsing included file '/fetools/synopsys/installed_tools/vcs/vcs/Q-2020.03-SP2-8/etc/uvm/tlm2/uvm_tlm2_sockets.svh'.
Back to file '/fetools/synopsys/installed_tools/vcs/vcs/Q-2020.03-SP2-8/etc/uvm/tlm2/uvm_tlm2.svh'.
Back to file '/fetools/synopsys/installed_tools/vcs/vcs/Q-2020.03-SP2-8/etc/uvm/uvm_pkg.sv'.
Parsing included file '/fetools/synopsys/installed_tools/vcs/vcs/Q-2020.03-SP2-8/etc/uvm/reg/uvm_reg_model.svh'.
Parsing included file '/fetools/synopsys/installed_tools/vcs/vcs/Q-2020.03-SP2-8/etc/uvm/reg/uvm_reg_item.svh'.
Back to file '/fetools/synopsys/installed_tools/vcs/vcs/Q-2020.03-SP2-8/etc/uvm/reg/uvm_reg_model.svh'.
Parsing included file '/fetools/synopsys/installed_tools/vcs/vcs/Q-2020.03-SP2-8/etc/uvm/reg/uvm_reg_adapter.svh'.
Back to file '/fetools/synopsys/installed_tools/vcs/vcs/Q-2020.03-SP2-8/etc/uvm/reg/uvm_reg_model.svh'.
Parsing included file '/fetools/synopsys/installed_tools/vcs/vcs/Q-2020.03-SP2-8/etc/uvm/reg/uvm_reg_predictor.svh'.
Back to file '/fetools/synopsys/installed_tools/vcs/vcs/Q-2020.03-SP2-8/etc/uvm/reg/uvm_reg_model.svh'.
Parsing included file '/fetools/synopsys/installed_tools/vcs/vcs/Q-2020.03-SP2-8/etc/uvm/reg/uvm_reg_sequence.svh'.
Back to file '/fetools/synopsys/installed_tools/vcs/vcs/Q-2020.03-SP2-8/etc/uvm/reg/uvm_reg_model.svh'.
Parsing included file '/fetools/synopsys/installed_tools/vcs/vcs/Q-2020.03-SP2-8/etc/uvm/reg/uvm_reg_cbs.svh'.
Back to file '/fetools/synopsys/installed_tools/vcs/vcs/Q-2020.03-SP2-8/etc/uvm/reg/uvm_reg_model.svh'.
Parsing included file '/fetools/synopsys/installed_tools/vcs/vcs/Q-2020.03-SP2-8/etc/uvm/reg/uvm_reg_backdoor.svh'.
Back to file '/fetools/synopsys/installed_tools/vcs/vcs/Q-2020.03-SP2-8/etc/uvm/reg/uvm_reg_model.svh'.
Parsing included file '/fetools/synopsys/installed_tools/vcs/vcs/Q-2020.03-SP2-8/etc/uvm/reg/uvm_reg_field.svh'.
Back to file '/fetools/synopsys/installed_tools/vcs/vcs/Q-2020.03-SP2-8/etc/uvm/reg/uvm_reg_model.svh'.
Parsing included file '/fetools/synopsys/installed_tools/vcs/vcs/Q-2020.03-SP2-8/etc/uvm/reg/uvm_vreg_field.svh'.
Back to file '/fetools/synopsys/installed_tools/vcs/vcs/Q-2020.03-SP2-8/etc/uvm/reg/uvm_reg_model.svh'.
Parsing included file '/fetools/synopsys/installed_tools/vcs/vcs/Q-2020.03-SP2-8/etc/uvm/reg/uvm_reg.svh'.
Back to file '/fetools/synopsys/installed_tools/vcs/vcs/Q-2020.03-SP2-8/etc/uvm/reg/uvm_reg_model.svh'.
Parsing included file '/fetools/synopsys/installed_tools/vcs/vcs/Q-2020.03-SP2-8/etc/uvm/reg/uvm_reg_indirect.svh'.
Back to file '/fetools/synopsys/installed_tools/vcs/vcs/Q-2020.03-SP2-8/etc/uvm/reg/uvm_reg_model.svh'.
Parsing included file '/fetools/synopsys/installed_tools/vcs/vcs/Q-2020.03-SP2-8/etc/uvm/reg/uvm_reg_fifo.svh'.
Back to file '/fetools/synopsys/installed_tools/vcs/vcs/Q-2020.03-SP2-8/etc/uvm/reg/uvm_reg_model.svh'.
Parsing included file '/fetools/synopsys/installed_tools/vcs/vcs/Q-2020.03-SP2-8/etc/uvm/reg/uvm_reg_file.svh'.
Back to file '/fetools/synopsys/installed_tools/vcs/vcs/Q-2020.03-SP2-8/etc/uvm/reg/uvm_reg_model.svh'.
Parsing included file '/fetools/synopsys/installed_tools/vcs/vcs/Q-2020.03-SP2-8/etc/uvm/reg/uvm_mem_mam.svh'.
Back to file '/fetools/synopsys/installed_tools/vcs/vcs/Q-2020.03-SP2-8/etc/uvm/reg/uvm_reg_model.svh'.
Parsing included file '/fetools/synopsys/installed_tools/vcs/vcs/Q-2020.03-SP2-8/etc/uvm/reg/uvm_vreg.svh'.
Back to file '/fetools/synopsys/installed_tools/vcs/vcs/Q-2020.03-SP2-8/etc/uvm/reg/uvm_reg_model.svh'.
Parsing included file '/fetools/synopsys/installed_tools/vcs/vcs/Q-2020.03-SP2-8/etc/uvm/reg/uvm_mem.svh'.
Back to file '/fetools/synopsys/installed_tools/vcs/vcs/Q-2020.03-SP2-8/etc/uvm/reg/uvm_reg_model.svh'.
Parsing included file '/fetools/synopsys/installed_tools/vcs/vcs/Q-2020.03-SP2-8/etc/uvm/reg/uvm_reg_map.svh'.
Back to file '/fetools/synopsys/installed_tools/vcs/vcs/Q-2020.03-SP2-8/etc/uvm/reg/uvm_reg_model.svh'.
Parsing included file '/fetools/synopsys/installed_tools/vcs/vcs/Q-2020.03-SP2-8/etc/uvm/reg/uvm_reg_block.svh'.
Back to file '/fetools/synopsys/installed_tools/vcs/vcs/Q-2020.03-SP2-8/etc/uvm/reg/uvm_reg_model.svh'.
Parsing included file '/fetools/synopsys/installed_tools/vcs/vcs/Q-2020.03-SP2-8/etc/uvm/reg/sequences/uvm_reg_hw_reset_seq.svh'.
Back to file '/fetools/synopsys/installed_tools/vcs/vcs/Q-2020.03-SP2-8/etc/uvm/reg/uvm_reg_model.svh'.
Parsing included file '/fetools/synopsys/installed_tools/vcs/vcs/Q-2020.03-SP2-8/etc/uvm/reg/sequences/uvm_reg_bit_bash_seq.svh'.
Back to file '/fetools/synopsys/installed_tools/vcs/vcs/Q-2020.03-SP2-8/etc/uvm/reg/uvm_reg_model.svh'.
Parsing included file '/fetools/synopsys/installed_tools/vcs/vcs/Q-2020.03-SP2-8/etc/uvm/reg/sequences/uvm_mem_walk_seq.svh'.
Back to file '/fetools/synopsys/installed_tools/vcs/vcs/Q-2020.03-SP2-8/etc/uvm/reg/uvm_reg_model.svh'.
Parsing included file '/fetools/synopsys/installed_tools/vcs/vcs/Q-2020.03-SP2-8/etc/uvm/reg/sequences/uvm_mem_access_seq.svh'.
Back to file '/fetools/synopsys/installed_tools/vcs/vcs/Q-2020.03-SP2-8/etc/uvm/reg/uvm_reg_model.svh'.
Parsing included file '/fetools/synopsys/installed_tools/vcs/vcs/Q-2020.03-SP2-8/etc/uvm/reg/sequences/uvm_reg_access_seq.svh'.
Back to file '/fetools/synopsys/installed_tools/vcs/vcs/Q-2020.03-SP2-8/etc/uvm/reg/uvm_reg_model.svh'.
Parsing included file '/fetools/synopsys/installed_tools/vcs/vcs/Q-2020.03-SP2-8/etc/uvm/reg/sequences/uvm_reg_mem_shared_access_seq.svh'.
Back to file '/fetools/synopsys/installed_tools/vcs/vcs/Q-2020.03-SP2-8/etc/uvm/reg/uvm_reg_model.svh'.
Parsing included file '/fetools/synopsys/installed_tools/vcs/vcs/Q-2020.03-SP2-8/etc/uvm/reg/sequences/uvm_reg_mem_built_in_seq.svh'.
Back to file '/fetools/synopsys/installed_tools/vcs/vcs/Q-2020.03-SP2-8/etc/uvm/reg/uvm_reg_model.svh'.
Parsing included file '/fetools/synopsys/installed_tools/vcs/vcs/Q-2020.03-SP2-8/etc/uvm/reg/sequences/uvm_reg_mem_hdl_paths_seq.svh'.
Back to file '/fetools/synopsys/installed_tools/vcs/vcs/Q-2020.03-SP2-8/etc/uvm/reg/uvm_reg_model.svh'.
Parsing included file '/fetools/synopsys/installed_tools/vcs/vcs/Q-2020.03-SP2-8/etc/uvm/reg/snps_uvm_reg_bank.svh'.
Back to file '/fetools/synopsys/installed_tools/vcs/vcs/Q-2020.03-SP2-8/etc/uvm/reg/uvm_reg_model.svh'.
Back to file '/fetools/synopsys/installed_tools/vcs/vcs/Q-2020.03-SP2-8/etc/uvm/uvm_pkg.sv'.
Parsing included file '/fetools/synopsys/installed_tools/vcs/vcs/Q-2020.03-SP2-8/etc/uvm/vcs/vcs_uvm_alt.sv'.
Back to file '/fetools/synopsys/installed_tools/vcs/vcs/Q-2020.03-SP2-8/etc/uvm/uvm_pkg.sv'.
Parsing design file '/fetools/synopsys/installed_tools/vcs/vcs/Q-2020.03-SP2-8/etc/uvm/vcs/uvm_custom_install_vcs_recorder.sv'
Parsing included file '/fetools/synopsys/installed_tools/vcs/vcs/Q-2020.03-SP2-8/etc/uvm/vcs/msglog.svh'.
Back to file '/fetools/synopsys/installed_tools/vcs/vcs/Q-2020.03-SP2-8/etc/uvm/vcs/uvm_custom_install_vcs_recorder.sv'.
Parsing included file '/fetools/synopsys/installed_tools/vcs/vcs/Q-2020.03-SP2-8/etc/uvm/vcs/uvm_msglog_report_server.sv'.
Back to file '/fetools/synopsys/installed_tools/vcs/vcs/Q-2020.03-SP2-8/etc/uvm/vcs/uvm_custom_install_vcs_recorder.sv'.
Parsing included file '/fetools/synopsys/installed_tools/vcs/vcs/Q-2020.03-SP2-8/etc/uvm/vcs/uvm_vcs_recorder.svh'.
Back to file '/fetools/synopsys/installed_tools/vcs/vcs/Q-2020.03-SP2-8/etc/uvm/vcs/uvm_custom_install_vcs_recorder.sv'.
Parsing included file '/fetools/synopsys/installed_tools/vcs/vcs/Q-2020.03-SP2-8/etc/uvm/vcs/uvm_vcs_record_interface.sv'.
Back to file '/fetools/synopsys/installed_tools/vcs/vcs/Q-2020.03-SP2-8/etc/uvm/vcs/uvm_custom_install_vcs_recorder.sv'.
Parsing design file '/fetools/synopsys/installed_tools/vcs/vcs/Q-2020.03-SP2-8/etc/uvm/verdi/uvm_custom_install_verdi_recorder.sv'
Parsing included file '/fetools/synopsys/installed_tools/vcs/vcs/Q-2020.03-SP2-8/etc/uvm/uvm_macros.svh'.
Back to file '/fetools/synopsys/installed_tools/vcs/vcs/Q-2020.03-SP2-8/etc/uvm/verdi/uvm_custom_install_verdi_recorder.sv'.
Parsing included file '/fetools/synopsys/installed_tools/vcs/vcs/Q-2020.03-SP2-8/etc/uvm/verdi/uvm_verdi_recorder.svh'.
Parsing included file '/fetools/synopsys/installed_tools/vcs/vcs/Q-2020.03-SP2-8/etc/uvm/verdi/uvm_verdi_pli_base.svh'.
Back to file '/fetools/synopsys/installed_tools/vcs/vcs/Q-2020.03-SP2-8/etc/uvm/verdi/uvm_verdi_recorder.svh'.
Back to file '/fetools/synopsys/installed_tools/vcs/vcs/Q-2020.03-SP2-8/etc/uvm/verdi/uvm_custom_install_verdi_recorder.sv'.
Parsing included file '/fetools/synopsys/installed_tools/vcs/vcs/Q-2020.03-SP2-8/etc/uvm/verdi/uvm_verdi_reg_map_recording.sv'.
Back to file '/fetools/synopsys/installed_tools/vcs/vcs/Q-2020.03-SP2-8/etc/uvm/verdi/uvm_custom_install_verdi_recorder.sv'.
Parsing included file '/fetools/synopsys/installed_tools/vcs/vcs/Q-2020.03-SP2-8/etc/uvm/verdi/uvm_verdi_message_catcher.svh'.
Parsing included file '/fetools/synopsys/installed_tools/vcs/vcs/Q-2020.03-SP2-8/etc/uvm/verdi/uvm_verdi_pli_base.svh'.
Back to file '/fetools/synopsys/installed_tools/vcs/vcs/Q-2020.03-SP2-8/etc/uvm/verdi/uvm_verdi_message_catcher.svh'.
Back to file '/fetools/synopsys/installed_tools/vcs/vcs/Q-2020.03-SP2-8/etc/uvm/verdi/uvm_custom_install_verdi_recorder.sv'.
Parsing included file '/fetools/synopsys/installed_tools/vcs/vcs/Q-2020.03-SP2-8/etc/uvm/verdi/./dpi/uvm_verdi_dpi.svh'.
Back to file '/fetools/synopsys/installed_tools/vcs/vcs/Q-2020.03-SP2-8/etc/uvm/verdi/uvm_custom_install_verdi_recorder.sv'.
Parsing included file '/fetools/synopsys/installed_tools/vcs/vcs/Q-2020.03-SP2-8/etc/uvm/verdi/uvm_verdi_reg_recording.sv'.
Back to file '/fetools/synopsys/installed_tools/vcs/vcs/Q-2020.03-SP2-8/etc/uvm/verdi/uvm_custom_install_verdi_recorder.sv'.
Parsing included file '/fetools/synopsys/installed_tools/verdi/verdi/Q-2020.03-SP2-8/share/PLI/VCS/include/verdi_trans_recorder_dpi.svh'.
Back to file '/fetools/synopsys/installed_tools/vcs/vcs/Q-2020.03-SP2-8/etc/uvm/verdi/uvm_custom_install_verdi_recorder.sv'.
Parsing included file '/fetools/synopsys/installed_tools/vcs/vcs/Q-2020.03-SP2-8/etc/uvm/verdi/uvm_verdi_pli.svh'.
Back to file '/fetools/synopsys/installed_tools/vcs/vcs/Q-2020.03-SP2-8/etc/uvm/verdi/uvm_custom_install_verdi_recorder.sv'.
Parsing design file '/fetools/synopsys/installed_tools/vcs/vcs/Q-2020.03-SP2-8/etc/uvm/verdi/uvm_custom_install_verdi_recorder.sv'
Parsing design file 'top.sv'
Parsing included file 'DUT.sv'.
Back to file 'top.sv'.
Parsing included file 'package.sv'.
Parsing included file 'defines.svh'.
Back to file 'package.sv'.
Parsing included file '/fetools/synopsys/installed_tools/vcs/vcs/Q-2020.03-SP2-8/etc/uvm/uvm_macros.svh'.
Back to file 'package.sv'.
Parsing included file 'my_transaction.sv'.
Back to file 'package.sv'.
Parsing included file 'sequencer.sv'.
Back to file 'package.sv'.
Parsing included file 'sequences.sv'.
Back to file 'package.sv'.
Parsing included file 'driver.sv'.
Back to file 'package.sv'.
Parsing included file 'monitor.sv'.
Back to file 'package.sv'.
Parsing included file 'agent.sv'.
Back to file 'package.sv'.
Parsing included file 'subscriber.sv'.
Back to file 'package.sv'.
Parsing included file 'scoreboard.sv'.
Back to file 'package.sv'.
Parsing included file 'environment.sv'.
Back to file 'package.sv'.
Parsing included file 'test.sv'.
Back to file 'package.sv'.
Back to file 'top.sv'.
Parsing included file 'interface.sv'.
Back to file 'top.sv'.
Top Level Modules:
       uvm_custom_install_recording
       uvm_custom_install_verdi_recording
       top
TimeScale is 1 ns / 1 ps
Starting vcs inline pass...

10 modules and 0 UDP read.
recompiling package vcs_paramclassrepository
recompiling module uvm_custom_install_verdi_recording
recompiling package pkg
3 of 10 modules done
	However, due to incremental compilation, only 3 modules need to be compiled. 
rm -f _cuarc*.so _csrc*.so pre_vcsobj_*.so share_vcsobj_*.so
ld -shared  -Bsymbolic   -o .//../simv.daidir//_cuarc0.so objs/amcQw_d.o 
rm -f _cuarc0.so
if [ -x ../simv ]; then chmod a-x ../simv; fi
g++  -o ../simv      -rdynamic  -Wl,-rpath='$ORIGIN'/simv.daidir -Wl,-rpath=./simv.daidir \
-Wl,-rpath=/fetools/synopsys/installed_tools/vcs/vcs/Q-2020.03-SP2-8/linux64/lib \
-L/fetools/synopsys/installed_tools/vcs/vcs/Q-2020.03-SP2-8/linux64/lib  -Wl,-rpath-link=./ \
/usr/lib64/libnuma.so.1 uvm_dpi.o uvm_verdi_dpi.o     _227792_archive_1.so _prev_archive_1.so \
_cuarc0.so  SIM_l.o      rmapats_mop.o rmapats.o rmar.o rmar_nd.o  rmar_llvm_0_1.o \
rmar_llvm_0_0.o          -lvirsim -lerrorinf -lsnpsmalloc -lvfs    -lvcsnew -lsimprofile \
-luclinative /fetools/synopsys/installed_tools/vcs/vcs/Q-2020.03-SP2-8/linux64/lib/vcs_tls.o \
-Wl,-whole-archive  -lvcsucli    -Wl,-no-whole-archive       ./../simv.daidir/vc_hdrs.o \
_vcs_pli_stub_.o   /fetools/synopsys/installed_tools/vcs/vcs/Q-2020.03-SP2-8/linux64/lib/vcs_save_restore_new.o \
/fetools/synopsys/installed_tools/verdi/verdi/Q-2020.03-SP2-8/share/PLI/VCS/LINUX64/pli.a \
-ldl  -lc -lm -lpthread -ldl 
../simv up to date
Command: /fetools/work_area/frontend/Batch_11/srivatsa/UVM/project/AXI4_Lite/try/./simv +v2k -a fell.log
Chronologic VCS simulator copyright 1991-2020
Contains Synopsys proprietary information.
Compiler version Q-2020.03-SP2-8_Full64; Runtime version Q-2020.03-SP2-8_Full64;  Sep 14 22:01 2026
----------------------------------------------------------------
UVM-1.1d.Synopsys
(C) 2007-2013 Mentor Graphics Corporation
(C) 2007-2013 Cadence Design Systems, Inc.
(C) 2006-2013 Synopsys, Inc.
(C) 2011-2013 Cypress Semiconductor Corp.
----------------------------------------------------------------

  ***********       IMPORTANT RELEASE NOTES         ************

  You are using a version of the UVM library that has been compiled
  with `UVM_NO_DEPRECATED undefined.
  See http://www.eda.org/svdb/view.php?id=3313 for more details.

  You are using a version of the UVM library that has been compiled
  with `UVM_OBJECT_MUST_HAVE_CONSTRUCTOR undefined.
  See http://www.eda.org/svdb/view.php?id=3770 for more details.

      (Specify +UVM_NO_RELNOTES to turn off this notice)

UVM_INFO @ 0: reporter [RNTST] Running test test...
UVM_INFO @ 0: reporter [UVMTOP] UVM testbench topology:
--------------------------------------------------------------
Name                       Type                    Size  Value
--------------------------------------------------------------
uvm_test_top               test                    -     @461 
  env                      environment             -     @474 
    act                    agent                   -     @482 
      drv                  driver                  -     @560 
        rsp_port           uvm_analysis_port       -     @577 
        seq_item_port      uvm_seq_item_pull_port  -     @568 
      mon                  monitor                 -     @542 
        ap                 uvm_analysis_port       -     @550 
      sqr                  uvm_sequencer           -     @586 
        rsp_export         uvm_analysis_export     -     @594 
        seq_item_export    uvm_seq_item_pull_imp   -     @700 
        arbitration_queue  array                   0     -    
        lock_queue         array                   0     -    
        num_last_reqs      integral                32    'd1  
        num_last_rsps      integral                32    'd1  
    pass                   agent                   -     @490 
      mon                  monitor                 -     @717 
        ap                 uvm_analysis_port       -     @725 
    sc                     scoreboard              -     @498 
      in_mon               uvm_analysis_imp        -     @506 
      out_mon              uvm_analysis_imp_out    -     @515 
    sub                    subscriber              -     @524 
      analysis_imp         uvm_analysis_imp        -     @532 
      out_mon              uvm_analysis_imp_out    -     @736 
--------------------------------------------------------------

UVM_INFO sequences.sv(386) @ 0: uvm_test_top.env.act.sqr@@wr [SEQ] AWADDR=44, AWPROT=0, AWVALID=1, WDATA=219558840, WSTRB=1110, WVALID=1, ARADDR=40, ARPROT=0, ARVALID=0, RREADY=0
UVM_INFO driver.sv(39) @ 5000: uvm_test_top.env.act.drv [DRV] AWADDR=44, AWPROT=0, AWVALID=1
UVM_INFO driver.sv(46) @ 5000: uvm_test_top.env.act.drv [DRV] WDATA=219558840, WSTRB=1110, WVALID=1
UVM_INFO driver.sv(53) @ 5000: uvm_test_top.env.act.drv [DRV] ARADDR=40, ARPROT=0, ARVALID=0
UVM_INFO driver.sv(60) @ 5000: uvm_test_top.env.act.drv [DRV] BREADY=1
UVM_INFO driver.sv(65) @ 5000: uvm_test_top.env.act.drv [DRV] RREADY=0
UVM_INFO sequences.sv(386) @ 5000: uvm_test_top.env.act.sqr@@wr [SEQ] AWADDR=44, AWPROT=0, AWVALID=1, WDATA=219558840, WSTRB=1110, WVALID=1, ARADDR=40, ARPROT=0, ARVALID=0, RREADY=1
UVM_INFO monitor.sv(55) @ 15000: uvm_test_top.env.act.mon [uvm_test_top.env.act.mon] rst=0, AWADDR=44, AWPROT=0, AWVALID=1, WDATA=219558840, WSTRB=14, WVALID=1, BREADY=1, ARADDR=40, ARPROT=0, ARVALID=0, RREADY=0, AWREADY=0, WREADY=0, BRESP=0, BVALID=0, ARREADY=0, ARPROT=0, RDATA=0, RRESP=0, RVALID=0
UVM_INFO monitor.sv(55) @ 15000: uvm_test_top.env.pass.mon [uvm_test_top.env.pass.mon] rst=0, AWADDR=44, AWPROT=0, AWVALID=1, WDATA=219558840, WSTRB=14, WVALID=1, BREADY=1, ARADDR=40, ARPROT=0, ARVALID=0, RREADY=0, AWREADY=0, WREADY=0, BRESP=0, BVALID=0, ARREADY=0, ARPROT=0, RDATA=0, RRESP=0, RVALID=0
UVM_INFO driver.sv(39) @ 15000: uvm_test_top.env.act.drv [DRV] AWADDR=44, AWPROT=0, AWVALID=1
UVM_INFO driver.sv(46) @ 15000: uvm_test_top.env.act.drv [DRV] WDATA=219558840, WSTRB=1110, WVALID=1
UVM_INFO driver.sv(53) @ 15000: uvm_test_top.env.act.drv [DRV] ARADDR=40, ARPROT=0, ARVALID=0
UVM_INFO driver.sv(60) @ 15000: uvm_test_top.env.act.drv [DRV] BREADY=1
UVM_INFO driver.sv(65) @ 15000: uvm_test_top.env.act.drv [DRV] RREADY=1
UVM_INFO sequences.sv(386) @ 15000: uvm_test_top.env.act.sqr@@wr [SEQ] AWADDR=44, AWPROT=0, AWVALID=1, WDATA=219558840, WSTRB=1110, WVALID=1, ARADDR=40, ARPROT=0, ARVALID=0, RREADY=0
UVM_INFO monitor.sv(55) @ 25000: uvm_test_top.env.act.mon [uvm_test_top.env.act.mon] rst=0, AWADDR=44, AWPROT=0, AWVALID=1, WDATA=219558840, WSTRB=14, WVALID=1, BREADY=1, ARADDR=40, ARPROT=0, ARVALID=0, RREADY=1, AWREADY=0, WREADY=0, BRESP=0, BVALID=0, ARREADY=0, ARPROT=0, RDATA=0, RRESP=0, RVALID=0
UVM_INFO monitor.sv(55) @ 25000: uvm_test_top.env.pass.mon [uvm_test_top.env.pass.mon] rst=0, AWADDR=44, AWPROT=0, AWVALID=1, WDATA=219558840, WSTRB=14, WVALID=1, BREADY=1, ARADDR=40, ARPROT=0, ARVALID=0, RREADY=1, AWREADY=0, WREADY=0, BRESP=0, BVALID=0, ARREADY=0, ARPROT=0, RDATA=0, RRESP=0, RVALID=0
UVM_INFO scoreboard.sv(53) @ 25000: uvm_test_top.env.sc [SCOREBOARD] DUT: BRESP=0, RDATA=0, RRESP=0
REF: BRESP=0, RDATA=0, RRESP=0


UVM_INFO driver.sv(39) @ 25000: uvm_test_top.env.act.drv [DRV] AWADDR=44, AWPROT=0, AWVALID=1
UVM_INFO driver.sv(46) @ 25000: uvm_test_top.env.act.drv [DRV] WDATA=219558840, WSTRB=1110, WVALID=1
UVM_INFO driver.sv(53) @ 25000: uvm_test_top.env.act.drv [DRV] ARADDR=40, ARPROT=0, ARVALID=0
UVM_INFO driver.sv(60) @ 25000: uvm_test_top.env.act.drv [DRV] BREADY=1
UVM_INFO driver.sv(65) @ 25000: uvm_test_top.env.act.drv [DRV] RREADY=0
UVM_INFO sequences.sv(386) @ 25000: uvm_test_top.env.act.sqr@@wr [SEQ] AWADDR=44, AWPROT=0, AWVALID=1, WDATA=219558840, WSTRB=1110, WVALID=1, ARADDR=40, ARPROT=0, ARVALID=0, RREADY=1
UVM_INFO monitor.sv(55) @ 35000: uvm_test_top.env.act.mon [uvm_test_top.env.act.mon] rst=1, AWADDR=44, AWPROT=0, AWVALID=1, WDATA=219558840, WSTRB=14, WVALID=1, BREADY=1, ARADDR=40, ARPROT=0, ARVALID=0, RREADY=0, AWREADY=0, WREADY=0, BRESP=0, BVALID=0, ARREADY=0, ARPROT=0, RDATA=0, RRESP=0, RVALID=0
UVM_INFO monitor.sv(55) @ 35000: uvm_test_top.env.pass.mon [uvm_test_top.env.pass.mon] rst=1, AWADDR=44, AWPROT=0, AWVALID=1, WDATA=219558840, WSTRB=14, WVALID=1, BREADY=1, ARADDR=40, ARPROT=0, ARVALID=0, RREADY=0, AWREADY=0, WREADY=0, BRESP=0, BVALID=0, ARREADY=0, ARPROT=0, RDATA=0, RRESP=0, RVALID=0
UVM_INFO scoreboard.sv(53) @ 35000: uvm_test_top.env.sc [SCOREBOARD] DUT: BRESP=0, RDATA=0, RRESP=0
REF: BRESP=0, RDATA=0, RRESP=0


UVM_INFO driver.sv(39) @ 35000: uvm_test_top.env.act.drv [DRV] AWADDR=44, AWPROT=0, AWVALID=1
UVM_INFO driver.sv(46) @ 35000: uvm_test_top.env.act.drv [DRV] WDATA=219558840, WSTRB=1110, WVALID=1
UVM_INFO driver.sv(53) @ 35000: uvm_test_top.env.act.drv [DRV] ARADDR=40, ARPROT=0, ARVALID=0
UVM_INFO driver.sv(60) @ 35000: uvm_test_top.env.act.drv [DRV] BREADY=1
UVM_INFO driver.sv(65) @ 35000: uvm_test_top.env.act.drv [DRV] RREADY=1
UVM_INFO sequences.sv(386) @ 35000: uvm_test_top.env.act.sqr@@wr [SEQ] AWADDR=44, AWPROT=0, AWVALID=1, WDATA=219558840, WSTRB=1110, WVALID=1, ARADDR=40, ARPROT=0, ARVALID=0, RREADY=0
UVM_INFO monitor.sv(55) @ 45000: uvm_test_top.env.act.mon [uvm_test_top.env.act.mon] rst=1, AWADDR=44, AWPROT=0, AWVALID=1, WDATA=219558840, WSTRB=14, WVALID=1, BREADY=1, ARADDR=40, ARPROT=0, ARVALID=0, RREADY=1, AWREADY=1, WREADY=1, BRESP=0, BVALID=0, ARREADY=1, ARPROT=0, RDATA=0, RRESP=0, RVALID=0
UVM_INFO monitor.sv(55) @ 45000: uvm_test_top.env.pass.mon [uvm_test_top.env.pass.mon] rst=1, AWADDR=44, AWPROT=0, AWVALID=1, WDATA=219558840, WSTRB=14, WVALID=1, BREADY=1, ARADDR=40, ARPROT=0, ARVALID=0, RREADY=1, AWREADY=1, WREADY=1, BRESP=0, BVALID=0, ARREADY=1, ARPROT=0, RDATA=0, RRESP=0, RVALID=0
UVM_INFO scoreboard.sv(53) @ 45000: uvm_test_top.env.sc [SCOREBOARD] DUT: BRESP=0, RDATA=0, RRESP=0
REF: BRESP=0, RDATA=0, RRESP=0


UVM_INFO driver.sv(39) @ 45000: uvm_test_top.env.act.drv [DRV] AWADDR=44, AWPROT=0, AWVALID=1
UVM_INFO driver.sv(46) @ 45000: uvm_test_top.env.act.drv [DRV] WDATA=219558840, WSTRB=1110, WVALID=1
UVM_INFO driver.sv(53) @ 45000: uvm_test_top.env.act.drv [DRV] ARADDR=40, ARPROT=0, ARVALID=0
UVM_INFO driver.sv(60) @ 45000: uvm_test_top.env.act.drv [DRV] BREADY=0
UVM_INFO driver.sv(65) @ 45000: uvm_test_top.env.act.drv [DRV] RREADY=0
UVM_INFO sequences.sv(386) @ 45000: uvm_test_top.env.act.sqr@@wr [SEQ] AWADDR=24, AWPROT=0, AWVALID=1, WDATA=1052277872, WSTRB=1100, WVALID=1, ARADDR=40, ARPROT=0, ARVALID=0, RREADY=1
UVM_INFO monitor.sv(55) @ 55000: uvm_test_top.env.act.mon [uvm_test_top.env.act.mon] rst=1, AWADDR=44, AWPROT=0, AWVALID=1, WDATA=219558840, WSTRB=14, WVALID=1, BREADY=0, ARADDR=40, ARPROT=0, ARVALID=0, RREADY=0, AWREADY=0, WREADY=0, BRESP=0, BVALID=0, ARREADY=1, ARPROT=0, RDATA=0, RRESP=0, RVALID=0
UVM_INFO monitor.sv(55) @ 55000: uvm_test_top.env.pass.mon [uvm_test_top.env.pass.mon] rst=1, AWADDR=44, AWPROT=0, AWVALID=1, WDATA=219558840, WSTRB=14, WVALID=1, BREADY=0, ARADDR=40, ARPROT=0, ARVALID=0, RREADY=0, AWREADY=0, WREADY=0, BRESP=0, BVALID=0, ARREADY=1, ARPROT=0, RDATA=0, RRESP=0, RVALID=0
UVM_INFO scoreboard.sv(53) @ 55000: uvm_test_top.env.sc [SCOREBOARD] DUT: BRESP=0, RDATA=0, RRESP=0
REF: BRESP=0, RDATA=0, RRESP=0


UVM_INFO driver.sv(39) @ 55000: uvm_test_top.env.act.drv [DRV] AWADDR=24, AWPROT=0, AWVALID=1
UVM_INFO driver.sv(46) @ 55000: uvm_test_top.env.act.drv [DRV] WDATA=1052277872, WSTRB=1100, WVALID=1
UVM_INFO driver.sv(53) @ 55000: uvm_test_top.env.act.drv [DRV] ARADDR=40, ARPROT=0, ARVALID=0
UVM_INFO driver.sv(60) @ 55000: uvm_test_top.env.act.drv [DRV] BREADY=0
UVM_INFO driver.sv(65) @ 55000: uvm_test_top.env.act.drv [DRV] RREADY=1
UVM_INFO sequences.sv(386) @ 55000: uvm_test_top.env.act.sqr@@wr [SEQ] AWADDR=24, AWPROT=0, AWVALID=1, WDATA=1052277872, WSTRB=1100, WVALID=1, ARADDR=40, ARPROT=0, ARVALID=0, RREADY=0
UVM_INFO monitor.sv(55) @ 65000: uvm_test_top.env.act.mon [uvm_test_top.env.act.mon] rst=1, AWADDR=24, AWPROT=0, AWVALID=1, WDATA=1052277872, WSTRB=12, WVALID=1, BREADY=0, ARADDR=40, ARPROT=0, ARVALID=0, RREADY=1, AWREADY=0, WREADY=0, BRESP=2, BVALID=1, ARREADY=1, ARPROT=0, RDATA=0, RRESP=0, RVALID=0
UVM_INFO monitor.sv(55) @ 65000: uvm_test_top.env.pass.mon [uvm_test_top.env.pass.mon] rst=1, AWADDR=24, AWPROT=0, AWVALID=1, WDATA=1052277872, WSTRB=12, WVALID=1, BREADY=0, ARADDR=40, ARPROT=0, ARVALID=0, RREADY=1, AWREADY=0, WREADY=0, BRESP=2, BVALID=1, ARREADY=1, ARPROT=0, RDATA=0, RRESP=0, RVALID=0
UVM_INFO scoreboard.sv(53) @ 65000: uvm_test_top.env.sc [SCOREBOARD] DUT: BRESP=2, RDATA=0, RRESP=0
REF: BRESP=2, RDATA=0, RRESP=0


UVM_INFO driver.sv(39) @ 65000: uvm_test_top.env.act.drv [DRV] AWADDR=24, AWPROT=0, AWVALID=1
UVM_INFO driver.sv(46) @ 65000: uvm_test_top.env.act.drv [DRV] WDATA=1052277872, WSTRB=1100, WVALID=1
UVM_INFO driver.sv(53) @ 65000: uvm_test_top.env.act.drv [DRV] ARADDR=40, ARPROT=0, ARVALID=0
UVM_INFO driver.sv(60) @ 65000: uvm_test_top.env.act.drv [DRV] BREADY=1
UVM_INFO driver.sv(65) @ 65000: uvm_test_top.env.act.drv [DRV] RREADY=0
UVM_INFO sequences.sv(386) @ 65000: uvm_test_top.env.act.sqr@@wr [SEQ] AWADDR=24, AWPROT=0, AWVALID=1, WDATA=1052277872, WSTRB=1100, WVALID=1, ARADDR=40, ARPROT=0, ARVALID=0, RREADY=0
UVM_INFO monitor.sv(55) @ 75000: uvm_test_top.env.act.mon [uvm_test_top.env.act.mon] rst=1, AWADDR=24, AWPROT=0, AWVALID=1, WDATA=1052277872, WSTRB=12, WVALID=1, BREADY=1, ARADDR=40, ARPROT=0, ARVALID=0, RREADY=0, AWREADY=0, WREADY=0, BRESP=2, BVALID=1, ARREADY=1, ARPROT=0, RDATA=0, RRESP=0, RVALID=0
UVM_INFO monitor.sv(55) @ 75000: uvm_test_top.env.pass.mon [uvm_test_top.env.pass.mon] rst=1, AWADDR=24, AWPROT=0, AWVALID=1, WDATA=1052277872, WSTRB=12, WVALID=1, BREADY=1, ARADDR=40, ARPROT=0, ARVALID=0, RREADY=0, AWREADY=0, WREADY=0, BRESP=2, BVALID=1, ARREADY=1, ARPROT=0, RDATA=0, RRESP=0, RVALID=0
UVM_INFO scoreboard.sv(53) @ 75000: uvm_test_top.env.sc [SCOREBOARD] DUT: BRESP=2, RDATA=0, RRESP=0
REF: BRESP=2, RDATA=0, RRESP=0


UVM_INFO driver.sv(39) @ 75000: uvm_test_top.env.act.drv [DRV] AWADDR=24, AWPROT=0, AWVALID=1
UVM_INFO driver.sv(46) @ 75000: uvm_test_top.env.act.drv [DRV] WDATA=1052277872, WSTRB=1100, WVALID=1
UVM_INFO driver.sv(53) @ 75000: uvm_test_top.env.act.drv [DRV] ARADDR=40, ARPROT=0, ARVALID=0
UVM_INFO driver.sv(60) @ 75000: uvm_test_top.env.act.drv [DRV] BREADY=1
UVM_INFO driver.sv(65) @ 75000: uvm_test_top.env.act.drv [DRV] RREADY=0
UVM_INFO sequences.sv(386) @ 75000: uvm_test_top.env.act.sqr@@wr [SEQ] AWADDR=24, AWPROT=0, AWVALID=1, WDATA=1052277872, WSTRB=1100, WVALID=1, ARADDR=40, ARPROT=0, ARVALID=0, RREADY=1
UVM_INFO monitor.sv(55) @ 85000: uvm_test_top.env.act.mon [uvm_test_top.env.act.mon] rst=1, AWADDR=24, AWPROT=0, AWVALID=1, WDATA=1052277872, WSTRB=12, WVALID=1, BREADY=1, ARADDR=40, ARPROT=0, ARVALID=0, RREADY=0, AWREADY=0, WREADY=0, BRESP=2, BVALID=0, ARREADY=1, ARPROT=0, RDATA=0, RRESP=0, RVALID=0
UVM_INFO monitor.sv(55) @ 85000: uvm_test_top.env.pass.mon [uvm_test_top.env.pass.mon] rst=1, AWADDR=24, AWPROT=0, AWVALID=1, WDATA=1052277872, WSTRB=12, WVALID=1, BREADY=1, ARADDR=40, ARPROT=0, ARVALID=0, RREADY=0, AWREADY=0, WREADY=0, BRESP=2, BVALID=0, ARREADY=1, ARPROT=0, RDATA=0, RRESP=0, RVALID=0
UVM_INFO scoreboard.sv(53) @ 85000: uvm_test_top.env.sc [SCOREBOARD] DUT: BRESP=2, RDATA=0, RRESP=0
REF: BRESP=2, RDATA=0, RRESP=0


UVM_INFO driver.sv(39) @ 85000: uvm_test_top.env.act.drv [DRV] AWADDR=24, AWPROT=0, AWVALID=1
UVM_INFO driver.sv(46) @ 85000: uvm_test_top.env.act.drv [DRV] WDATA=1052277872, WSTRB=1100, WVALID=1
UVM_INFO driver.sv(53) @ 85000: uvm_test_top.env.act.drv [DRV] ARADDR=40, ARPROT=0, ARVALID=0
UVM_INFO driver.sv(60) @ 85000: uvm_test_top.env.act.drv [DRV] BREADY=0
UVM_INFO driver.sv(65) @ 85000: uvm_test_top.env.act.drv [DRV] RREADY=1
UVM_INFO sequences.sv(386) @ 85000: uvm_test_top.env.act.sqr@@wr [SEQ] AWADDR=24, AWPROT=0, AWVALID=1, WDATA=1052277872, WSTRB=1100, WVALID=1, ARADDR=40, ARPROT=0, ARVALID=0, RREADY=1
UVM_INFO monitor.sv(55) @ 95000: uvm_test_top.env.act.mon [uvm_test_top.env.act.mon] rst=1, AWADDR=24, AWPROT=0, AWVALID=1, WDATA=1052277872, WSTRB=12, WVALID=1, BREADY=0, ARADDR=40, ARPROT=0, ARVALID=0, RREADY=1, AWREADY=1, WREADY=1, BRESP=2, BVALID=0, ARREADY=1, ARPROT=0, RDATA=0, RRESP=0, RVALID=0
UVM_INFO monitor.sv(55) @ 95000: uvm_test_top.env.pass.mon [uvm_test_top.env.pass.mon] rst=1, AWADDR=24, AWPROT=0, AWVALID=1, WDATA=1052277872, WSTRB=12, WVALID=1, BREADY=0, ARADDR=40, ARPROT=0, ARVALID=0, RREADY=1, AWREADY=1, WREADY=1, BRESP=2, BVALID=0, ARREADY=1, ARPROT=0, RDATA=0, RRESP=0, RVALID=0
UVM_INFO scoreboard.sv(53) @ 95000: uvm_test_top.env.sc [SCOREBOARD] DUT: BRESP=2, RDATA=0, RRESP=0
REF: BRESP=2, RDATA=0, RRESP=0


UVM_INFO driver.sv(39) @ 95000: uvm_test_top.env.act.drv [DRV] AWADDR=24, AWPROT=0, AWVALID=1
UVM_INFO driver.sv(46) @ 95000: uvm_test_top.env.act.drv [DRV] WDATA=1052277872, WSTRB=1100, WVALID=1
UVM_INFO driver.sv(53) @ 95000: uvm_test_top.env.act.drv [DRV] ARADDR=40, ARPROT=0, ARVALID=0
UVM_INFO driver.sv(60) @ 95000: uvm_test_top.env.act.drv [DRV] BREADY=0
UVM_INFO driver.sv(65) @ 95000: uvm_test_top.env.act.drv [DRV] RREADY=1
UVM_INFO sequences.sv(386) @ 95000: uvm_test_top.env.act.sqr@@wr [SEQ] AWADDR=16, AWPROT=0, AWVALID=1, WDATA=527929639, WSTRB=100, WVALID=1, ARADDR=40, ARPROT=0, ARVALID=0, RREADY=1
UVM_INFO monitor.sv(55) @ 105000: uvm_test_top.env.act.mon [uvm_test_top.env.act.mon] rst=1, AWADDR=24, AWPROT=0, AWVALID=1, WDATA=1052277872, WSTRB=12, WVALID=1, BREADY=0, ARADDR=40, ARPROT=0, ARVALID=0, RREADY=1, AWREADY=0, WREADY=0, BRESP=2, BVALID=0, ARREADY=1, ARPROT=0, RDATA=0, RRESP=0, RVALID=0
UVM_INFO monitor.sv(55) @ 105000: uvm_test_top.env.pass.mon [uvm_test_top.env.pass.mon] rst=1, AWADDR=24, AWPROT=0, AWVALID=1, WDATA=1052277872, WSTRB=12, WVALID=1, BREADY=0, ARADDR=40, ARPROT=0, ARVALID=0, RREADY=1, AWREADY=0, WREADY=0, BRESP=2, BVALID=0, ARREADY=1, ARPROT=0, RDATA=0, RRESP=0, RVALID=0
UVM_INFO scoreboard.sv(53) @ 105000: uvm_test_top.env.sc [SCOREBOARD] DUT: BRESP=2, RDATA=0, RRESP=0
REF: BRESP=2, RDATA=0, RRESP=0


UVM_INFO driver.sv(39) @ 105000: uvm_test_top.env.act.drv [DRV] AWADDR=16, AWPROT=0, AWVALID=1
UVM_INFO driver.sv(46) @ 105000: uvm_test_top.env.act.drv [DRV] WDATA=527929639, WSTRB=100, WVALID=1
UVM_INFO driver.sv(53) @ 105000: uvm_test_top.env.act.drv [DRV] ARADDR=40, ARPROT=0, ARVALID=0
UVM_INFO driver.sv(60) @ 105000: uvm_test_top.env.act.drv [DRV] BREADY=1
UVM_INFO driver.sv(65) @ 105000: uvm_test_top.env.act.drv [DRV] RREADY=1
UVM_INFO sequences.sv(386) @ 105000: uvm_test_top.env.act.sqr@@wr [SEQ] AWADDR=16, AWPROT=0, AWVALID=1, WDATA=527929639, WSTRB=100, WVALID=1, ARADDR=40, ARPROT=0, ARVALID=0, RREADY=0
UVM_INFO monitor.sv(55) @ 115000: uvm_test_top.env.act.mon [uvm_test_top.env.act.mon] rst=1, AWADDR=16, AWPROT=0, AWVALID=1, WDATA=527929639, WSTRB=4, WVALID=1, BREADY=1, ARADDR=40, ARPROT=0, ARVALID=0, RREADY=1, AWREADY=0, WREADY=0, BRESP=0, BVALID=1, ARREADY=1, ARPROT=0, RDATA=0, RRESP=0, RVALID=0
UVM_INFO monitor.sv(55) @ 115000: uvm_test_top.env.pass.mon [uvm_test_top.env.pass.mon] rst=1, AWADDR=16, AWPROT=0, AWVALID=1, WDATA=527929639, WSTRB=4, WVALID=1, BREADY=1, ARADDR=40, ARPROT=0, ARVALID=0, RREADY=1, AWREADY=0, WREADY=0, BRESP=0, BVALID=1, ARREADY=1, ARPROT=0, RDATA=0, RRESP=0, RVALID=0
UVM_INFO scoreboard.sv(53) @ 115000: uvm_test_top.env.sc [SCOREBOARD] DUT: BRESP=0, RDATA=0, RRESP=0
REF: BRESP=0, RDATA=0, RRESP=0


UVM_INFO driver.sv(39) @ 115000: uvm_test_top.env.act.drv [DRV] AWADDR=16, AWPROT=0, AWVALID=1
UVM_INFO driver.sv(46) @ 115000: uvm_test_top.env.act.drv [DRV] WDATA=527929639, WSTRB=100, WVALID=1
UVM_INFO driver.sv(53) @ 115000: uvm_test_top.env.act.drv [DRV] ARADDR=40, ARPROT=0, ARVALID=0
UVM_INFO driver.sv(60) @ 115000: uvm_test_top.env.act.drv [DRV] BREADY=0
UVM_INFO driver.sv(65) @ 115000: uvm_test_top.env.act.drv [DRV] RREADY=0
UVM_INFO sequences.sv(386) @ 115000: uvm_test_top.env.act.sqr@@wr [SEQ] AWADDR=16, AWPROT=0, AWVALID=1, WDATA=527929639, WSTRB=100, WVALID=1, ARADDR=40, ARPROT=0, ARVALID=0, RREADY=1
UVM_INFO monitor.sv(55) @ 125000: uvm_test_top.env.act.mon [uvm_test_top.env.act.mon] rst=1, AWADDR=16, AWPROT=0, AWVALID=1, WDATA=527929639, WSTRB=4, WVALID=1, BREADY=0, ARADDR=40, ARPROT=0, ARVALID=0, RREADY=0, AWREADY=0, WREADY=0, BRESP=0, BVALID=0, ARREADY=1, ARPROT=0, RDATA=0, RRESP=0, RVALID=0
UVM_INFO monitor.sv(55) @ 125000: uvm_test_top.env.pass.mon [uvm_test_top.env.pass.mon] rst=1, AWADDR=16, AWPROT=0, AWVALID=1, WDATA=527929639, WSTRB=4, WVALID=1, BREADY=0, ARADDR=40, ARPROT=0, ARVALID=0, RREADY=0, AWREADY=0, WREADY=0, BRESP=0, BVALID=0, ARREADY=1, ARPROT=0, RDATA=0, RRESP=0, RVALID=0
UVM_INFO scoreboard.sv(53) @ 125000: uvm_test_top.env.sc [SCOREBOARD] DUT: BRESP=0, RDATA=0, RRESP=0
REF: BRESP=0, RDATA=0, RRESP=0


UVM_INFO driver.sv(39) @ 125000: uvm_test_top.env.act.drv [DRV] AWADDR=16, AWPROT=0, AWVALID=1
UVM_INFO driver.sv(46) @ 125000: uvm_test_top.env.act.drv [DRV] WDATA=527929639, WSTRB=100, WVALID=1
UVM_INFO driver.sv(53) @ 125000: uvm_test_top.env.act.drv [DRV] ARADDR=40, ARPROT=0, ARVALID=0
UVM_INFO driver.sv(60) @ 125000: uvm_test_top.env.act.drv [DRV] BREADY=1
UVM_INFO driver.sv(65) @ 125000: uvm_test_top.env.act.drv [DRV] RREADY=1
UVM_INFO sequences.sv(386) @ 125000: uvm_test_top.env.act.sqr@@wr [SEQ] AWADDR=16, AWPROT=0, AWVALID=1, WDATA=527929639, WSTRB=100, WVALID=1, ARADDR=40, ARPROT=0, ARVALID=0, RREADY=1
UVM_INFO monitor.sv(55) @ 135000: uvm_test_top.env.act.mon [uvm_test_top.env.act.mon] rst=1, AWADDR=16, AWPROT=0, AWVALID=1, WDATA=527929639, WSTRB=4, WVALID=1, BREADY=1, ARADDR=40, ARPROT=0, ARVALID=0, RREADY=1, AWREADY=1, WREADY=1, BRESP=0, BVALID=0, ARREADY=1, ARPROT=0, RDATA=0, RRESP=0, RVALID=0
UVM_INFO monitor.sv(55) @ 135000: uvm_test_top.env.pass.mon [uvm_test_top.env.pass.mon] rst=1, AWADDR=16, AWPROT=0, AWVALID=1, WDATA=527929639, WSTRB=4, WVALID=1, BREADY=1, ARADDR=40, ARPROT=0, ARVALID=0, RREADY=1, AWREADY=1, WREADY=1, BRESP=0, BVALID=0, ARREADY=1, ARPROT=0, RDATA=0, RRESP=0, RVALID=0
UVM_INFO scoreboard.sv(53) @ 135000: uvm_test_top.env.sc [SCOREBOARD] DUT: BRESP=0, RDATA=0, RRESP=0
REF: BRESP=0, RDATA=0, RRESP=0


UVM_INFO driver.sv(39) @ 135000: uvm_test_top.env.act.drv [DRV] AWADDR=16, AWPROT=0, AWVALID=1
UVM_INFO driver.sv(46) @ 135000: uvm_test_top.env.act.drv [DRV] WDATA=527929639, WSTRB=100, WVALID=1
UVM_INFO driver.sv(53) @ 135000: uvm_test_top.env.act.drv [DRV] ARADDR=40, ARPROT=0, ARVALID=0
UVM_INFO driver.sv(60) @ 135000: uvm_test_top.env.act.drv [DRV] BREADY=0
UVM_INFO driver.sv(65) @ 135000: uvm_test_top.env.act.drv [DRV] RREADY=1
UVM_INFO sequences.sv(386) @ 135000: uvm_test_top.env.act.sqr@@wr [SEQ] AWADDR=48, AWPROT=0, AWVALID=1, WDATA=4087547164, WSTRB=10, WVALID=1, ARADDR=40, ARPROT=0, ARVALID=0, RREADY=1
UVM_INFO monitor.sv(55) @ 145000: uvm_test_top.env.act.mon [uvm_test_top.env.act.mon] rst=1, AWADDR=16, AWPROT=0, AWVALID=1, WDATA=527929639, WSTRB=4, WVALID=1, BREADY=0, ARADDR=40, ARPROT=0, ARVALID=0, RREADY=1, AWREADY=0, WREADY=0, BRESP=0, BVALID=0, ARREADY=1, ARPROT=0, RDATA=0, RRESP=0, RVALID=0
UVM_INFO monitor.sv(55) @ 145000: uvm_test_top.env.pass.mon [uvm_test_top.env.pass.mon] rst=1, AWADDR=16, AWPROT=0, AWVALID=1, WDATA=527929639, WSTRB=4, WVALID=1, BREADY=0, ARADDR=40, ARPROT=0, ARVALID=0, RREADY=1, AWREADY=0, WREADY=0, BRESP=0, BVALID=0, ARREADY=1, ARPROT=0, RDATA=0, RRESP=0, RVALID=0
UVM_INFO scoreboard.sv(53) @ 145000: uvm_test_top.env.sc [SCOREBOARD] DUT: BRESP=0, RDATA=0, RRESP=0
REF: BRESP=0, RDATA=0, RRESP=0


UVM_INFO driver.sv(39) @ 145000: uvm_test_top.env.act.drv [DRV] AWADDR=48, AWPROT=0, AWVALID=1
UVM_INFO driver.sv(46) @ 145000: uvm_test_top.env.act.drv [DRV] WDATA=4087547164, WSTRB=10, WVALID=1
UVM_INFO driver.sv(53) @ 145000: uvm_test_top.env.act.drv [DRV] ARADDR=40, ARPROT=0, ARVALID=0
UVM_INFO driver.sv(60) @ 145000: uvm_test_top.env.act.drv [DRV] BREADY=0
UVM_INFO driver.sv(65) @ 145000: uvm_test_top.env.act.drv [DRV] RREADY=1
UVM_INFO sequences.sv(386) @ 145000: uvm_test_top.env.act.sqr@@wr [SEQ] AWADDR=48, AWPROT=0, AWVALID=1, WDATA=4087547164, WSTRB=10, WVALID=1, ARADDR=40, ARPROT=0, ARVALID=0, RREADY=1
UVM_INFO monitor.sv(55) @ 155000: uvm_test_top.env.act.mon [uvm_test_top.env.act.mon] rst=1, AWADDR=48, AWPROT=0, AWVALID=1, WDATA=4087547164, WSTRB=2, WVALID=1, BREADY=0, ARADDR=40, ARPROT=0, ARVALID=0, RREADY=1, AWREADY=0, WREADY=0, BRESP=0, BVALID=1, ARREADY=1, ARPROT=0, RDATA=0, RRESP=0, RVALID=0
UVM_INFO monitor.sv(55) @ 155000: uvm_test_top.env.pass.mon [uvm_test_top.env.pass.mon] rst=1, AWADDR=48, AWPROT=0, AWVALID=1, WDATA=4087547164, WSTRB=2, WVALID=1, BREADY=0, ARADDR=40, ARPROT=0, ARVALID=0, RREADY=1, AWREADY=0, WREADY=0, BRESP=0, BVALID=1, ARREADY=1, ARPROT=0, RDATA=0, RRESP=0, RVALID=0
UVM_INFO scoreboard.sv(53) @ 155000: uvm_test_top.env.sc [SCOREBOARD] DUT: BRESP=0, RDATA=0, RRESP=0
REF: BRESP=0, RDATA=0, RRESP=0


UVM_INFO driver.sv(39) @ 155000: uvm_test_top.env.act.drv [DRV] AWADDR=48, AWPROT=0, AWVALID=1
UVM_INFO driver.sv(46) @ 155000: uvm_test_top.env.act.drv [DRV] WDATA=4087547164, WSTRB=10, WVALID=1
UVM_INFO driver.sv(53) @ 155000: uvm_test_top.env.act.drv [DRV] ARADDR=40, ARPROT=0, ARVALID=0
UVM_INFO driver.sv(60) @ 155000: uvm_test_top.env.act.drv [DRV] BREADY=1
UVM_INFO driver.sv(65) @ 155000: uvm_test_top.env.act.drv [DRV] RREADY=1
UVM_INFO sequences.sv(386) @ 155000: uvm_test_top.env.act.sqr@@wr [SEQ] AWADDR=48, AWPROT=0, AWVALID=1, WDATA=4087547164, WSTRB=10, WVALID=1, ARADDR=40, ARPROT=0, ARVALID=0, RREADY=1
UVM_INFO monitor.sv(55) @ 165000: uvm_test_top.env.act.mon [uvm_test_top.env.act.mon] rst=1, AWADDR=48, AWPROT=0, AWVALID=1, WDATA=4087547164, WSTRB=2, WVALID=1, BREADY=1, ARADDR=40, ARPROT=0, ARVALID=0, RREADY=1, AWREADY=0, WREADY=0, BRESP=0, BVALID=1, ARREADY=1, ARPROT=0, RDATA=0, RRESP=0, RVALID=0
UVM_INFO monitor.sv(55) @ 165000: uvm_test_top.env.pass.mon [uvm_test_top.env.pass.mon] rst=1, AWADDR=48, AWPROT=0, AWVALID=1, WDATA=4087547164, WSTRB=2, WVALID=1, BREADY=1, ARADDR=40, ARPROT=0, ARVALID=0, RREADY=1, AWREADY=0, WREADY=0, BRESP=0, BVALID=1, ARREADY=1, ARPROT=0, RDATA=0, RRESP=0, RVALID=0
UVM_INFO scoreboard.sv(53) @ 165000: uvm_test_top.env.sc [SCOREBOARD] DUT: BRESP=0, RDATA=0, RRESP=0
REF: BRESP=0, RDATA=0, RRESP=0


UVM_INFO driver.sv(39) @ 165000: uvm_test_top.env.act.drv [DRV] AWADDR=48, AWPROT=0, AWVALID=1
UVM_INFO driver.sv(46) @ 165000: uvm_test_top.env.act.drv [DRV] WDATA=4087547164, WSTRB=10, WVALID=1
UVM_INFO driver.sv(53) @ 165000: uvm_test_top.env.act.drv [DRV] ARADDR=40, ARPROT=0, ARVALID=0
UVM_INFO driver.sv(60) @ 165000: uvm_test_top.env.act.drv [DRV] BREADY=0
UVM_INFO driver.sv(65) @ 165000: uvm_test_top.env.act.drv [DRV] RREADY=1
UVM_INFO sequences.sv(386) @ 165000: uvm_test_top.env.act.sqr@@wr [SEQ] AWADDR=48, AWPROT=0, AWVALID=1, WDATA=4087547164, WSTRB=10, WVALID=1, ARADDR=40, ARPROT=0, ARVALID=0, RREADY=0
UVM_INFO monitor.sv(55) @ 175000: uvm_test_top.env.act.mon [uvm_test_top.env.act.mon] rst=1, AWADDR=48, AWPROT=0, AWVALID=1, WDATA=4087547164, WSTRB=2, WVALID=1, BREADY=0, ARADDR=40, ARPROT=0, ARVALID=0, RREADY=1, AWREADY=0, WREADY=0, BRESP=0, BVALID=0, ARREADY=1, ARPROT=0, RDATA=0, RRESP=0, RVALID=0
UVM_INFO monitor.sv(55) @ 175000: uvm_test_top.env.pass.mon [uvm_test_top.env.pass.mon] rst=1, AWADDR=48, AWPROT=0, AWVALID=1, WDATA=4087547164, WSTRB=2, WVALID=1, BREADY=0, ARADDR=40, ARPROT=0, ARVALID=0, RREADY=1, AWREADY=0, WREADY=0, BRESP=0, BVALID=0, ARREADY=1, ARPROT=0, RDATA=0, RRESP=0, RVALID=0
UVM_INFO scoreboard.sv(53) @ 175000: uvm_test_top.env.sc [SCOREBOARD] DUT: BRESP=0, RDATA=0, RRESP=0
REF: BRESP=0, RDATA=0, RRESP=0


UVM_INFO driver.sv(39) @ 175000: uvm_test_top.env.act.drv [DRV] AWADDR=48, AWPROT=0, AWVALID=1
UVM_INFO driver.sv(46) @ 175000: uvm_test_top.env.act.drv [DRV] WDATA=4087547164, WSTRB=10, WVALID=1
UVM_INFO driver.sv(53) @ 175000: uvm_test_top.env.act.drv [DRV] ARADDR=40, ARPROT=0, ARVALID=0
UVM_INFO driver.sv(60) @ 175000: uvm_test_top.env.act.drv [DRV] BREADY=0
UVM_INFO driver.sv(65) @ 175000: uvm_test_top.env.act.drv [DRV] RREADY=0
UVM_INFO sequences.sv(386) @ 175000: uvm_test_top.env.act.sqr@@wr [SEQ] AWADDR=48, AWPROT=0, AWVALID=1, WDATA=4087547164, WSTRB=10, WVALID=1, ARADDR=40, ARPROT=0, ARVALID=0, RREADY=1
UVM_INFO monitor.sv(55) @ 185000: uvm_test_top.env.act.mon [uvm_test_top.env.act.mon] rst=1, AWADDR=48, AWPROT=0, AWVALID=1, WDATA=4087547164, WSTRB=2, WVALID=1, BREADY=0, ARADDR=40, ARPROT=0, ARVALID=0, RREADY=0, AWREADY=1, WREADY=1, BRESP=0, BVALID=0, ARREADY=1, ARPROT=0, RDATA=0, RRESP=0, RVALID=0
UVM_INFO monitor.sv(55) @ 185000: uvm_test_top.env.pass.mon [uvm_test_top.env.pass.mon] rst=1, AWADDR=48, AWPROT=0, AWVALID=1, WDATA=4087547164, WSTRB=2, WVALID=1, BREADY=0, ARADDR=40, ARPROT=0, ARVALID=0, RREADY=0, AWREADY=1, WREADY=1, BRESP=0, BVALID=0, ARREADY=1, ARPROT=0, RDATA=0, RRESP=0, RVALID=0
UVM_INFO scoreboard.sv(53) @ 185000: uvm_test_top.env.sc [SCOREBOARD] DUT: BRESP=0, RDATA=0, RRESP=0
REF: BRESP=0, RDATA=0, RRESP=0


UVM_INFO driver.sv(39) @ 185000: uvm_test_top.env.act.drv [DRV] AWADDR=48, AWPROT=0, AWVALID=1
UVM_INFO driver.sv(46) @ 185000: uvm_test_top.env.act.drv [DRV] WDATA=4087547164, WSTRB=10, WVALID=1
UVM_INFO driver.sv(53) @ 185000: uvm_test_top.env.act.drv [DRV] ARADDR=40, ARPROT=0, ARVALID=0
UVM_INFO driver.sv(60) @ 185000: uvm_test_top.env.act.drv [DRV] BREADY=1
UVM_INFO driver.sv(65) @ 185000: uvm_test_top.env.act.drv [DRV] RREADY=1
UVM_INFO sequences.sv(386) @ 185000: uvm_test_top.env.act.sqr@@wr [SEQ] AWADDR=52, AWPROT=0, AWVALID=1, WDATA=3826918498, WSTRB=10, WVALID=1, ARADDR=40, ARPROT=0, ARVALID=0, RREADY=0
UVM_INFO monitor.sv(55) @ 195000: uvm_test_top.env.act.mon [uvm_test_top.env.act.mon] rst=1, AWADDR=48, AWPROT=0, AWVALID=1, WDATA=4087547164, WSTRB=2, WVALID=1, BREADY=1, ARADDR=40, ARPROT=0, ARVALID=0, RREADY=1, AWREADY=0, WREADY=0, BRESP=0, BVALID=0, ARREADY=1, ARPROT=0, RDATA=0, RRESP=0, RVALID=0
UVM_INFO monitor.sv(55) @ 195000: uvm_test_top.env.pass.mon [uvm_test_top.env.pass.mon] rst=1, AWADDR=48, AWPROT=0, AWVALID=1, WDATA=4087547164, WSTRB=2, WVALID=1, BREADY=1, ARADDR=40, ARPROT=0, ARVALID=0, RREADY=1, AWREADY=0, WREADY=0, BRESP=0, BVALID=0, ARREADY=1, ARPROT=0, RDATA=0, RRESP=0, RVALID=0
UVM_INFO scoreboard.sv(53) @ 195000: uvm_test_top.env.sc [SCOREBOARD] DUT: BRESP=0, RDATA=0, RRESP=0
REF: BRESP=0, RDATA=0, RRESP=0


UVM_INFO driver.sv(39) @ 195000: uvm_test_top.env.act.drv [DRV] AWADDR=52, AWPROT=0, AWVALID=1
UVM_INFO driver.sv(46) @ 195000: uvm_test_top.env.act.drv [DRV] WDATA=3826918498, WSTRB=10, WVALID=1
UVM_INFO driver.sv(53) @ 195000: uvm_test_top.env.act.drv [DRV] ARADDR=40, ARPROT=0, ARVALID=0
UVM_INFO driver.sv(60) @ 195000: uvm_test_top.env.act.drv [DRV] BREADY=1
UVM_INFO driver.sv(65) @ 195000: uvm_test_top.env.act.drv [DRV] RREADY=0
UVM_INFO sequences.sv(386) @ 195000: uvm_test_top.env.act.sqr@@wr [SEQ] AWADDR=52, AWPROT=0, AWVALID=1, WDATA=3826918498, WSTRB=10, WVALID=1, ARADDR=40, ARPROT=0, ARVALID=0, RREADY=1
UVM_INFO monitor.sv(55) @ 205000: uvm_test_top.env.act.mon [uvm_test_top.env.act.mon] rst=1, AWADDR=52, AWPROT=0, AWVALID=1, WDATA=3826918498, WSTRB=2, WVALID=1, BREADY=1, ARADDR=40, ARPROT=0, ARVALID=0, RREADY=0, AWREADY=0, WREADY=0, BRESP=2, BVALID=1, ARREADY=1, ARPROT=0, RDATA=0, RRESP=0, RVALID=0
UVM_INFO monitor.sv(55) @ 205000: uvm_test_top.env.pass.mon [uvm_test_top.env.pass.mon] rst=1, AWADDR=52, AWPROT=0, AWVALID=1, WDATA=3826918498, WSTRB=2, WVALID=1, BREADY=1, ARADDR=40, ARPROT=0, ARVALID=0, RREADY=0, AWREADY=0, WREADY=0, BRESP=2, BVALID=1, ARREADY=1, ARPROT=0, RDATA=0, RRESP=0, RVALID=0
UVM_INFO scoreboard.sv(53) @ 205000: uvm_test_top.env.sc [SCOREBOARD] DUT: BRESP=2, RDATA=0, RRESP=0
REF: BRESP=2, RDATA=0, RRESP=0


UVM_INFO driver.sv(39) @ 205000: uvm_test_top.env.act.drv [DRV] AWADDR=52, AWPROT=0, AWVALID=1
UVM_INFO driver.sv(46) @ 205000: uvm_test_top.env.act.drv [DRV] WDATA=3826918498, WSTRB=10, WVALID=1
UVM_INFO driver.sv(53) @ 205000: uvm_test_top.env.act.drv [DRV] ARADDR=40, ARPROT=0, ARVALID=0
UVM_INFO driver.sv(60) @ 205000: uvm_test_top.env.act.drv [DRV] BREADY=0
UVM_INFO driver.sv(65) @ 205000: uvm_test_top.env.act.drv [DRV] RREADY=1
UVM_INFO sequences.sv(386) @ 205000: uvm_test_top.env.act.sqr@@wr [SEQ] AWADDR=52, AWPROT=0, AWVALID=1, WDATA=3826918498, WSTRB=10, WVALID=1, ARADDR=40, ARPROT=0, ARVALID=0, RREADY=1
UVM_INFO monitor.sv(55) @ 215000: uvm_test_top.env.act.mon [uvm_test_top.env.act.mon] rst=1, AWADDR=52, AWPROT=0, AWVALID=1, WDATA=3826918498, WSTRB=2, WVALID=1, BREADY=0, ARADDR=40, ARPROT=0, ARVALID=0, RREADY=1, AWREADY=0, WREADY=0, BRESP=2, BVALID=0, ARREADY=1, ARPROT=0, RDATA=0, RRESP=0, RVALID=0
UVM_INFO monitor.sv(55) @ 215000: uvm_test_top.env.pass.mon [uvm_test_top.env.pass.mon] rst=1, AWADDR=52, AWPROT=0, AWVALID=1, WDATA=3826918498, WSTRB=2, WVALID=1, BREADY=0, ARADDR=40, ARPROT=0, ARVALID=0, RREADY=1, AWREADY=0, WREADY=0, BRESP=2, BVALID=0, ARREADY=1, ARPROT=0, RDATA=0, RRESP=0, RVALID=0
UVM_INFO scoreboard.sv(53) @ 215000: uvm_test_top.env.sc [SCOREBOARD] DUT: BRESP=2, RDATA=0, RRESP=0
REF: BRESP=2, RDATA=0, RRESP=0


UVM_INFO driver.sv(39) @ 215000: uvm_test_top.env.act.drv [DRV] AWADDR=52, AWPROT=0, AWVALID=1
UVM_INFO driver.sv(46) @ 215000: uvm_test_top.env.act.drv [DRV] WDATA=3826918498, WSTRB=10, WVALID=1
UVM_INFO driver.sv(53) @ 215000: uvm_test_top.env.act.drv [DRV] ARADDR=40, ARPROT=0, ARVALID=0
UVM_INFO driver.sv(60) @ 215000: uvm_test_top.env.act.drv [DRV] BREADY=0
UVM_INFO driver.sv(65) @ 215000: uvm_test_top.env.act.drv [DRV] RREADY=1
UVM_INFO sequences.sv(386) @ 215000: uvm_test_top.env.act.sqr@@wr [SEQ] AWADDR=52, AWPROT=0, AWVALID=1, WDATA=3826918498, WSTRB=10, WVALID=1, ARADDR=40, ARPROT=0, ARVALID=0, RREADY=0
UVM_INFO monitor.sv(55) @ 225000: uvm_test_top.env.act.mon [uvm_test_top.env.act.mon] rst=1, AWADDR=52, AWPROT=0, AWVALID=1, WDATA=3826918498, WSTRB=2, WVALID=1, BREADY=0, ARADDR=40, ARPROT=0, ARVALID=0, RREADY=1, AWREADY=1, WREADY=1, BRESP=2, BVALID=0, ARREADY=1, ARPROT=0, RDATA=0, RRESP=0, RVALID=0
UVM_INFO monitor.sv(55) @ 225000: uvm_test_top.env.pass.mon [uvm_test_top.env.pass.mon] rst=1, AWADDR=52, AWPROT=0, AWVALID=1, WDATA=3826918498, WSTRB=2, WVALID=1, BREADY=0, ARADDR=40, ARPROT=0, ARVALID=0, RREADY=1, AWREADY=1, WREADY=1, BRESP=2, BVALID=0, ARREADY=1, ARPROT=0, RDATA=0, RRESP=0, RVALID=0
UVM_INFO scoreboard.sv(53) @ 225000: uvm_test_top.env.sc [SCOREBOARD] DUT: BRESP=2, RDATA=0, RRESP=0
REF: BRESP=2, RDATA=0, RRESP=0


UVM_INFO driver.sv(39) @ 225000: uvm_test_top.env.act.drv [DRV] AWADDR=52, AWPROT=0, AWVALID=1
UVM_INFO driver.sv(46) @ 225000: uvm_test_top.env.act.drv [DRV] WDATA=3826918498, WSTRB=10, WVALID=1
UVM_INFO driver.sv(53) @ 225000: uvm_test_top.env.act.drv [DRV] ARADDR=40, ARPROT=0, ARVALID=0
UVM_INFO driver.sv(60) @ 225000: uvm_test_top.env.act.drv [DRV] BREADY=1
UVM_INFO driver.sv(65) @ 225000: uvm_test_top.env.act.drv [DRV] RREADY=0
UVM_INFO sequences.sv(386) @ 225000: uvm_test_top.env.act.sqr@@wr [SEQ] AWADDR=16, AWPROT=0, AWVALID=1, WDATA=2620033527, WSTRB=101, WVALID=1, ARADDR=40, ARPROT=0, ARVALID=0, RREADY=0
UVM_INFO monitor.sv(55) @ 235000: uvm_test_top.env.act.mon [uvm_test_top.env.act.mon] rst=1, AWADDR=52, AWPROT=0, AWVALID=1, WDATA=3826918498, WSTRB=2, WVALID=1, BREADY=1, ARADDR=40, ARPROT=0, ARVALID=0, RREADY=0, AWREADY=0, WREADY=0, BRESP=2, BVALID=0, ARREADY=1, ARPROT=0, RDATA=0, RRESP=0, RVALID=0
UVM_INFO monitor.sv(55) @ 235000: uvm_test_top.env.pass.mon [uvm_test_top.env.pass.mon] rst=1, AWADDR=52, AWPROT=0, AWVALID=1, WDATA=3826918498, WSTRB=2, WVALID=1, BREADY=1, ARADDR=40, ARPROT=0, ARVALID=0, RREADY=0, AWREADY=0, WREADY=0, BRESP=2, BVALID=0, ARREADY=1, ARPROT=0, RDATA=0, RRESP=0, RVALID=0
UVM_INFO scoreboard.sv(53) @ 235000: uvm_test_top.env.sc [SCOREBOARD] DUT: BRESP=2, RDATA=0, RRESP=0
REF: BRESP=2, RDATA=0, RRESP=0


UVM_INFO driver.sv(39) @ 235000: uvm_test_top.env.act.drv [DRV] AWADDR=16, AWPROT=0, AWVALID=1
UVM_INFO driver.sv(46) @ 235000: uvm_test_top.env.act.drv [DRV] WDATA=2620033527, WSTRB=101, WVALID=1
UVM_INFO driver.sv(53) @ 235000: uvm_test_top.env.act.drv [DRV] ARADDR=40, ARPROT=0, ARVALID=0
UVM_INFO driver.sv(60) @ 235000: uvm_test_top.env.act.drv [DRV] BREADY=0
UVM_INFO driver.sv(65) @ 235000: uvm_test_top.env.act.drv [DRV] RREADY=0
UVM_INFO sequences.sv(386) @ 235000: uvm_test_top.env.act.sqr@@wr [SEQ] AWADDR=16, AWPROT=0, AWVALID=1, WDATA=2620033527, WSTRB=101, WVALID=1, ARADDR=40, ARPROT=0, ARVALID=0, RREADY=0
UVM_INFO monitor.sv(55) @ 245000: uvm_test_top.env.act.mon [uvm_test_top.env.act.mon] rst=1, AWADDR=16, AWPROT=0, AWVALID=1, WDATA=2620033527, WSTRB=5, WVALID=1, BREADY=0, ARADDR=40, ARPROT=0, ARVALID=0, RREADY=0, AWREADY=0, WREADY=0, BRESP=0, BVALID=1, ARREADY=1, ARPROT=0, RDATA=0, RRESP=0, RVALID=0
UVM_INFO monitor.sv(55) @ 245000: uvm_test_top.env.pass.mon [uvm_test_top.env.pass.mon] rst=1, AWADDR=16, AWPROT=0, AWVALID=1, WDATA=2620033527, WSTRB=5, WVALID=1, BREADY=0, ARADDR=40, ARPROT=0, ARVALID=0, RREADY=0, AWREADY=0, WREADY=0, BRESP=0, BVALID=1, ARREADY=1, ARPROT=0, RDATA=0, RRESP=0, RVALID=0
UVM_INFO scoreboard.sv(53) @ 245000: uvm_test_top.env.sc [SCOREBOARD] DUT: BRESP=0, RDATA=0, RRESP=0
REF: BRESP=0, RDATA=0, RRESP=0


UVM_INFO driver.sv(39) @ 245000: uvm_test_top.env.act.drv [DRV] AWADDR=16, AWPROT=0, AWVALID=1
UVM_INFO driver.sv(46) @ 245000: uvm_test_top.env.act.drv [DRV] WDATA=2620033527, WSTRB=101, WVALID=1
UVM_INFO driver.sv(53) @ 245000: uvm_test_top.env.act.drv [DRV] ARADDR=40, ARPROT=0, ARVALID=0
UVM_INFO driver.sv(60) @ 245000: uvm_test_top.env.act.drv [DRV] BREADY=0
UVM_INFO driver.sv(65) @ 245000: uvm_test_top.env.act.drv [DRV] RREADY=0
UVM_INFO sequences.sv(386) @ 245000: uvm_test_top.env.act.sqr@@wr [SEQ] AWADDR=16, AWPROT=0, AWVALID=1, WDATA=2620033527, WSTRB=101, WVALID=1, ARADDR=40, ARPROT=0, ARVALID=0, RREADY=1
UVM_INFO monitor.sv(55) @ 255000: uvm_test_top.env.act.mon [uvm_test_top.env.act.mon] rst=1, AWADDR=16, AWPROT=0, AWVALID=1, WDATA=2620033527, WSTRB=5, WVALID=1, BREADY=0, ARADDR=40, ARPROT=0, ARVALID=0, RREADY=0, AWREADY=0, WREADY=0, BRESP=0, BVALID=1, ARREADY=1, ARPROT=0, RDATA=0, RRESP=0, RVALID=0
UVM_INFO monitor.sv(55) @ 255000: uvm_test_top.env.pass.mon [uvm_test_top.env.pass.mon] rst=1, AWADDR=16, AWPROT=0, AWVALID=1, WDATA=2620033527, WSTRB=5, WVALID=1, BREADY=0, ARADDR=40, ARPROT=0, ARVALID=0, RREADY=0, AWREADY=0, WREADY=0, BRESP=0, BVALID=1, ARREADY=1, ARPROT=0, RDATA=0, RRESP=0, RVALID=0
UVM_INFO scoreboard.sv(53) @ 255000: uvm_test_top.env.sc [SCOREBOARD] DUT: BRESP=0, RDATA=0, RRESP=0
REF: BRESP=0, RDATA=0, RRESP=0


UVM_INFO driver.sv(39) @ 255000: uvm_test_top.env.act.drv [DRV] AWADDR=16, AWPROT=0, AWVALID=1
UVM_INFO driver.sv(46) @ 255000: uvm_test_top.env.act.drv [DRV] WDATA=2620033527, WSTRB=101, WVALID=1
UVM_INFO driver.sv(53) @ 255000: uvm_test_top.env.act.drv [DRV] ARADDR=40, ARPROT=0, ARVALID=0
UVM_INFO driver.sv(60) @ 255000: uvm_test_top.env.act.drv [DRV] BREADY=1
UVM_INFO driver.sv(65) @ 255000: uvm_test_top.env.act.drv [DRV] RREADY=1
UVM_INFO sequences.sv(386) @ 255000: uvm_test_top.env.act.sqr@@wr [SEQ] AWADDR=16, AWPROT=0, AWVALID=1, WDATA=2620033527, WSTRB=101, WVALID=1, ARADDR=40, ARPROT=0, ARVALID=0, RREADY=1
UVM_INFO monitor.sv(55) @ 265000: uvm_test_top.env.act.mon [uvm_test_top.env.act.mon] rst=1, AWADDR=16, AWPROT=0, AWVALID=1, WDATA=2620033527, WSTRB=5, WVALID=1, BREADY=1, ARADDR=40, ARPROT=0, ARVALID=0, RREADY=1, AWREADY=0, WREADY=0, BRESP=0, BVALID=1, ARREADY=1, ARPROT=0, RDATA=0, RRESP=0, RVALID=0
UVM_INFO monitor.sv(55) @ 265000: uvm_test_top.env.pass.mon [uvm_test_top.env.pass.mon] rst=1, AWADDR=16, AWPROT=0, AWVALID=1, WDATA=2620033527, WSTRB=5, WVALID=1, BREADY=1, ARADDR=40, ARPROT=0, ARVALID=0, RREADY=1, AWREADY=0, WREADY=0, BRESP=0, BVALID=1, ARREADY=1, ARPROT=0, RDATA=0, RRESP=0, RVALID=0
UVM_INFO scoreboard.sv(53) @ 265000: uvm_test_top.env.sc [SCOREBOARD] DUT: BRESP=0, RDATA=0, RRESP=0
REF: BRESP=0, RDATA=0, RRESP=0


UVM_INFO driver.sv(39) @ 265000: uvm_test_top.env.act.drv [DRV] AWADDR=16, AWPROT=0, AWVALID=1
UVM_INFO driver.sv(46) @ 265000: uvm_test_top.env.act.drv [DRV] WDATA=2620033527, WSTRB=101, WVALID=1
UVM_INFO driver.sv(53) @ 265000: uvm_test_top.env.act.drv [DRV] ARADDR=40, ARPROT=0, ARVALID=0
UVM_INFO driver.sv(60) @ 265000: uvm_test_top.env.act.drv [DRV] BREADY=0
UVM_INFO driver.sv(65) @ 265000: uvm_test_top.env.act.drv [DRV] RREADY=1
UVM_INFO sequences.sv(386) @ 265000: uvm_test_top.env.act.sqr@@wr [SEQ] AWADDR=16, AWPROT=0, AWVALID=1, WDATA=2620033527, WSTRB=101, WVALID=1, ARADDR=40, ARPROT=0, ARVALID=0, RREADY=0
UVM_INFO monitor.sv(55) @ 275000: uvm_test_top.env.act.mon [uvm_test_top.env.act.mon] rst=1, AWADDR=16, AWPROT=0, AWVALID=1, WDATA=2620033527, WSTRB=5, WVALID=1, BREADY=0, ARADDR=40, ARPROT=0, ARVALID=0, RREADY=1, AWREADY=0, WREADY=0, BRESP=0, BVALID=0, ARREADY=1, ARPROT=0, RDATA=0, RRESP=0, RVALID=0
UVM_INFO monitor.sv(55) @ 275000: uvm_test_top.env.pass.mon [uvm_test_top.env.pass.mon] rst=1, AWADDR=16, AWPROT=0, AWVALID=1, WDATA=2620033527, WSTRB=5, WVALID=1, BREADY=0, ARADDR=40, ARPROT=0, ARVALID=0, RREADY=1, AWREADY=0, WREADY=0, BRESP=0, BVALID=0, ARREADY=1, ARPROT=0, RDATA=0, RRESP=0, RVALID=0
UVM_INFO scoreboard.sv(53) @ 275000: uvm_test_top.env.sc [SCOREBOARD] DUT: BRESP=0, RDATA=0, RRESP=0
REF: BRESP=0, RDATA=0, RRESP=0


UVM_INFO driver.sv(39) @ 275000: uvm_test_top.env.act.drv [DRV] AWADDR=16, AWPROT=0, AWVALID=1
UVM_INFO driver.sv(46) @ 275000: uvm_test_top.env.act.drv [DRV] WDATA=2620033527, WSTRB=101, WVALID=1
UVM_INFO driver.sv(53) @ 275000: uvm_test_top.env.act.drv [DRV] ARADDR=40, ARPROT=0, ARVALID=0
UVM_INFO driver.sv(60) @ 275000: uvm_test_top.env.act.drv [DRV] BREADY=0
UVM_INFO driver.sv(65) @ 275000: uvm_test_top.env.act.drv [DRV] RREADY=0
UVM_INFO sequences.sv(386) @ 275000: uvm_test_top.env.act.sqr@@wr [SEQ] AWADDR=16, AWPROT=0, AWVALID=1, WDATA=2620033527, WSTRB=101, WVALID=1, ARADDR=40, ARPROT=0, ARVALID=0, RREADY=1
UVM_INFO monitor.sv(55) @ 285000: uvm_test_top.env.act.mon [uvm_test_top.env.act.mon] rst=1, AWADDR=16, AWPROT=0, AWVALID=1, WDATA=2620033527, WSTRB=5, WVALID=1, BREADY=0, ARADDR=40, ARPROT=0, ARVALID=0, RREADY=0, AWREADY=1, WREADY=1, BRESP=0, BVALID=0, ARREADY=1, ARPROT=0, RDATA=0, RRESP=0, RVALID=0
UVM_INFO monitor.sv(55) @ 285000: uvm_test_top.env.pass.mon [uvm_test_top.env.pass.mon] rst=1, AWADDR=16, AWPROT=0, AWVALID=1, WDATA=2620033527, WSTRB=5, WVALID=1, BREADY=0, ARADDR=40, ARPROT=0, ARVALID=0, RREADY=0, AWREADY=1, WREADY=1, BRESP=0, BVALID=0, ARREADY=1, ARPROT=0, RDATA=0, RRESP=0, RVALID=0
UVM_INFO scoreboard.sv(53) @ 285000: uvm_test_top.env.sc [SCOREBOARD] DUT: BRESP=0, RDATA=0, RRESP=0
REF: BRESP=0, RDATA=0, RRESP=0


UVM_INFO driver.sv(39) @ 285000: uvm_test_top.env.act.drv [DRV] AWADDR=16, AWPROT=0, AWVALID=1
UVM_INFO driver.sv(46) @ 285000: uvm_test_top.env.act.drv [DRV] WDATA=2620033527, WSTRB=101, WVALID=1
UVM_INFO driver.sv(53) @ 285000: uvm_test_top.env.act.drv [DRV] ARADDR=40, ARPROT=0, ARVALID=0
UVM_INFO driver.sv(60) @ 285000: uvm_test_top.env.act.drv [DRV] BREADY=1
UVM_INFO driver.sv(65) @ 285000: uvm_test_top.env.act.drv [DRV] RREADY=1
UVM_INFO sequences.sv(386) @ 285000: uvm_test_top.env.act.sqr@@wr [SEQ] AWADDR=0, AWPROT=0, AWVALID=1, WDATA=1639733561, WSTRB=1, WVALID=1, ARADDR=40, ARPROT=0, ARVALID=0, RREADY=1
UVM_INFO monitor.sv(55) @ 295000: uvm_test_top.env.act.mon [uvm_test_top.env.act.mon] rst=1, AWADDR=16, AWPROT=0, AWVALID=1, WDATA=2620033527, WSTRB=5, WVALID=1, BREADY=1, ARADDR=40, ARPROT=0, ARVALID=0, RREADY=1, AWREADY=0, WREADY=0, BRESP=0, BVALID=0, ARREADY=1, ARPROT=0, RDATA=0, RRESP=0, RVALID=0
UVM_INFO monitor.sv(55) @ 295000: uvm_test_top.env.pass.mon [uvm_test_top.env.pass.mon] rst=1, AWADDR=16, AWPROT=0, AWVALID=1, WDATA=2620033527, WSTRB=5, WVALID=1, BREADY=1, ARADDR=40, ARPROT=0, ARVALID=0, RREADY=1, AWREADY=0, WREADY=0, BRESP=0, BVALID=0, ARREADY=1, ARPROT=0, RDATA=0, RRESP=0, RVALID=0
UVM_INFO scoreboard.sv(53) @ 295000: uvm_test_top.env.sc [SCOREBOARD] DUT: BRESP=0, RDATA=0, RRESP=0
REF: BRESP=0, RDATA=0, RRESP=0


UVM_INFO driver.sv(39) @ 295000: uvm_test_top.env.act.drv [DRV] AWADDR=0, AWPROT=0, AWVALID=1
UVM_INFO driver.sv(46) @ 295000: uvm_test_top.env.act.drv [DRV] WDATA=1639733561, WSTRB=1, WVALID=1
UVM_INFO driver.sv(53) @ 295000: uvm_test_top.env.act.drv [DRV] ARADDR=40, ARPROT=0, ARVALID=0
UVM_INFO driver.sv(60) @ 295000: uvm_test_top.env.act.drv [DRV] BREADY=0
UVM_INFO driver.sv(65) @ 295000: uvm_test_top.env.act.drv [DRV] RREADY=1
UVM_INFO sequences.sv(386) @ 295000: uvm_test_top.env.act.sqr@@wr [SEQ] AWADDR=0, AWPROT=0, AWVALID=1, WDATA=1639733561, WSTRB=1, WVALID=1, ARADDR=40, ARPROT=0, ARVALID=0, RREADY=1
UVM_INFO monitor.sv(55) @ 305000: uvm_test_top.env.act.mon [uvm_test_top.env.act.mon] rst=1, AWADDR=0, AWPROT=0, AWVALID=1, WDATA=1639733561, WSTRB=1, WVALID=1, BREADY=0, ARADDR=40, ARPROT=0, ARVALID=0, RREADY=1, AWREADY=0, WREADY=0, BRESP=0, BVALID=1, ARREADY=1, ARPROT=0, RDATA=0, RRESP=0, RVALID=0
UVM_INFO monitor.sv(55) @ 305000: uvm_test_top.env.pass.mon [uvm_test_top.env.pass.mon] rst=1, AWADDR=0, AWPROT=0, AWVALID=1, WDATA=1639733561, WSTRB=1, WVALID=1, BREADY=0, ARADDR=40, ARPROT=0, ARVALID=0, RREADY=1, AWREADY=0, WREADY=0, BRESP=0, BVALID=1, ARREADY=1, ARPROT=0, RDATA=0, RRESP=0, RVALID=0
UVM_INFO scoreboard.sv(53) @ 305000: uvm_test_top.env.sc [SCOREBOARD] DUT: BRESP=0, RDATA=0, RRESP=0
REF: BRESP=0, RDATA=0, RRESP=0


UVM_INFO driver.sv(39) @ 305000: uvm_test_top.env.act.drv [DRV] AWADDR=0, AWPROT=0, AWVALID=1
UVM_INFO driver.sv(46) @ 305000: uvm_test_top.env.act.drv [DRV] WDATA=1639733561, WSTRB=1, WVALID=1
UVM_INFO driver.sv(53) @ 305000: uvm_test_top.env.act.drv [DRV] ARADDR=40, ARPROT=0, ARVALID=0
UVM_INFO driver.sv(60) @ 305000: uvm_test_top.env.act.drv [DRV] BREADY=0
UVM_INFO driver.sv(65) @ 305000: uvm_test_top.env.act.drv [DRV] RREADY=1
UVM_INFO sequences.sv(386) @ 305000: uvm_test_top.env.act.sqr@@wr [SEQ] AWADDR=0, AWPROT=0, AWVALID=1, WDATA=1639733561, WSTRB=1, WVALID=1, ARADDR=40, ARPROT=0, ARVALID=0, RREADY=0
UVM_INFO monitor.sv(55) @ 315000: uvm_test_top.env.act.mon [uvm_test_top.env.act.mon] rst=1, AWADDR=0, AWPROT=0, AWVALID=1, WDATA=1639733561, WSTRB=1, WVALID=1, BREADY=0, ARADDR=40, ARPROT=0, ARVALID=0, RREADY=1, AWREADY=0, WREADY=0, BRESP=0, BVALID=1, ARREADY=1, ARPROT=0, RDATA=0, RRESP=0, RVALID=0
UVM_INFO monitor.sv(55) @ 315000: uvm_test_top.env.pass.mon [uvm_test_top.env.pass.mon] rst=1, AWADDR=0, AWPROT=0, AWVALID=1, WDATA=1639733561, WSTRB=1, WVALID=1, BREADY=0, ARADDR=40, ARPROT=0, ARVALID=0, RREADY=1, AWREADY=0, WREADY=0, BRESP=0, BVALID=1, ARREADY=1, ARPROT=0, RDATA=0, RRESP=0, RVALID=0
UVM_INFO scoreboard.sv(53) @ 315000: uvm_test_top.env.sc [SCOREBOARD] DUT: BRESP=0, RDATA=0, RRESP=0
REF: BRESP=0, RDATA=0, RRESP=0


UVM_INFO driver.sv(39) @ 315000: uvm_test_top.env.act.drv [DRV] AWADDR=0, AWPROT=0, AWVALID=1
UVM_INFO driver.sv(46) @ 315000: uvm_test_top.env.act.drv [DRV] WDATA=1639733561, WSTRB=1, WVALID=1
UVM_INFO driver.sv(53) @ 315000: uvm_test_top.env.act.drv [DRV] ARADDR=40, ARPROT=0, ARVALID=0
UVM_INFO driver.sv(60) @ 315000: uvm_test_top.env.act.drv [DRV] BREADY=0
UVM_INFO driver.sv(65) @ 315000: uvm_test_top.env.act.drv [DRV] RREADY=0
UVM_INFO sequences.sv(386) @ 315000: uvm_test_top.env.act.sqr@@wr [SEQ] AWADDR=0, AWPROT=0, AWVALID=1, WDATA=1639733561, WSTRB=1, WVALID=1, ARADDR=40, ARPROT=0, ARVALID=0, RREADY=1
UVM_INFO monitor.sv(55) @ 325000: uvm_test_top.env.act.mon [uvm_test_top.env.act.mon] rst=1, AWADDR=0, AWPROT=0, AWVALID=1, WDATA=1639733561, WSTRB=1, WVALID=1, BREADY=0, ARADDR=40, ARPROT=0, ARVALID=0, RREADY=0, AWREADY=0, WREADY=0, BRESP=0, BVALID=1, ARREADY=1, ARPROT=0, RDATA=0, RRESP=0, RVALID=0
UVM_INFO monitor.sv(55) @ 325000: uvm_test_top.env.pass.mon [uvm_test_top.env.pass.mon] rst=1, AWADDR=0, AWPROT=0, AWVALID=1, WDATA=1639733561, WSTRB=1, WVALID=1, BREADY=0, ARADDR=40, ARPROT=0, ARVALID=0, RREADY=0, AWREADY=0, WREADY=0, BRESP=0, BVALID=1, ARREADY=1, ARPROT=0, RDATA=0, RRESP=0, RVALID=0
UVM_INFO scoreboard.sv(53) @ 325000: uvm_test_top.env.sc [SCOREBOARD] DUT: BRESP=0, RDATA=0, RRESP=0
REF: BRESP=0, RDATA=0, RRESP=0


UVM_INFO driver.sv(39) @ 325000: uvm_test_top.env.act.drv [DRV] AWADDR=0, AWPROT=0, AWVALID=1
UVM_INFO driver.sv(46) @ 325000: uvm_test_top.env.act.drv [DRV] WDATA=1639733561, WSTRB=1, WVALID=1
UVM_INFO driver.sv(53) @ 325000: uvm_test_top.env.act.drv [DRV] ARADDR=40, ARPROT=0, ARVALID=0
UVM_INFO driver.sv(60) @ 325000: uvm_test_top.env.act.drv [DRV] BREADY=1
UVM_INFO driver.sv(65) @ 325000: uvm_test_top.env.act.drv [DRV] RREADY=1
UVM_INFO sequences.sv(386) @ 325000: uvm_test_top.env.act.sqr@@wr [SEQ] AWADDR=0, AWPROT=0, AWVALID=1, WDATA=1639733561, WSTRB=1, WVALID=1, ARADDR=40, ARPROT=0, ARVALID=0, RREADY=0
UVM_INFO monitor.sv(55) @ 335000: uvm_test_top.env.act.mon [uvm_test_top.env.act.mon] rst=1, AWADDR=0, AWPROT=0, AWVALID=1, WDATA=1639733561, WSTRB=1, WVALID=1, BREADY=1, ARADDR=40, ARPROT=0, ARVALID=0, RREADY=1, AWREADY=0, WREADY=0, BRESP=0, BVALID=1, ARREADY=1, ARPROT=0, RDATA=0, RRESP=0, RVALID=0
UVM_INFO monitor.sv(55) @ 335000: uvm_test_top.env.pass.mon [uvm_test_top.env.pass.mon] rst=1, AWADDR=0, AWPROT=0, AWVALID=1, WDATA=1639733561, WSTRB=1, WVALID=1, BREADY=1, ARADDR=40, ARPROT=0, ARVALID=0, RREADY=1, AWREADY=0, WREADY=0, BRESP=0, BVALID=1, ARREADY=1, ARPROT=0, RDATA=0, RRESP=0, RVALID=0
UVM_INFO scoreboard.sv(53) @ 335000: uvm_test_top.env.sc [SCOREBOARD] DUT: BRESP=0, RDATA=0, RRESP=0
REF: BRESP=0, RDATA=0, RRESP=0


UVM_INFO driver.sv(39) @ 335000: uvm_test_top.env.act.drv [DRV] AWADDR=0, AWPROT=0, AWVALID=1
UVM_INFO driver.sv(46) @ 335000: uvm_test_top.env.act.drv [DRV] WDATA=1639733561, WSTRB=1, WVALID=1
UVM_INFO driver.sv(53) @ 335000: uvm_test_top.env.act.drv [DRV] ARADDR=40, ARPROT=0, ARVALID=0
UVM_INFO driver.sv(60) @ 335000: uvm_test_top.env.act.drv [DRV] BREADY=0
UVM_INFO driver.sv(65) @ 335000: uvm_test_top.env.act.drv [DRV] RREADY=0
UVM_INFO sequences.sv(386) @ 335000: uvm_test_top.env.act.sqr@@wr [SEQ] AWADDR=0, AWPROT=0, AWVALID=1, WDATA=1639733561, WSTRB=1, WVALID=1, ARADDR=40, ARPROT=0, ARVALID=0, RREADY=0
UVM_INFO monitor.sv(55) @ 345000: uvm_test_top.env.act.mon [uvm_test_top.env.act.mon] rst=1, AWADDR=0, AWPROT=0, AWVALID=1, WDATA=1639733561, WSTRB=1, WVALID=1, BREADY=0, ARADDR=40, ARPROT=0, ARVALID=0, RREADY=0, AWREADY=0, WREADY=0, BRESP=0, BVALID=0, ARREADY=1, ARPROT=0, RDATA=0, RRESP=0, RVALID=0
UVM_INFO monitor.sv(55) @ 345000: uvm_test_top.env.pass.mon [uvm_test_top.env.pass.mon] rst=1, AWADDR=0, AWPROT=0, AWVALID=1, WDATA=1639733561, WSTRB=1, WVALID=1, BREADY=0, ARADDR=40, ARPROT=0, ARVALID=0, RREADY=0, AWREADY=0, WREADY=0, BRESP=0, BVALID=0, ARREADY=1, ARPROT=0, RDATA=0, RRESP=0, RVALID=0
UVM_INFO scoreboard.sv(53) @ 345000: uvm_test_top.env.sc [SCOREBOARD] DUT: BRESP=0, RDATA=0, RRESP=0
REF: BRESP=0, RDATA=0, RRESP=0


UVM_INFO driver.sv(39) @ 345000: uvm_test_top.env.act.drv [DRV] AWADDR=0, AWPROT=0, AWVALID=1
UVM_INFO driver.sv(46) @ 345000: uvm_test_top.env.act.drv [DRV] WDATA=1639733561, WSTRB=1, WVALID=1
UVM_INFO driver.sv(53) @ 345000: uvm_test_top.env.act.drv [DRV] ARADDR=40, ARPROT=0, ARVALID=0
UVM_INFO driver.sv(60) @ 345000: uvm_test_top.env.act.drv [DRV] BREADY=0
UVM_INFO driver.sv(65) @ 345000: uvm_test_top.env.act.drv [DRV] RREADY=0
UVM_INFO sequences.sv(386) @ 345000: uvm_test_top.env.act.sqr@@wr [SEQ] AWADDR=0, AWPROT=0, AWVALID=1, WDATA=1639733561, WSTRB=1, WVALID=1, ARADDR=40, ARPROT=0, ARVALID=0, RREADY=0
UVM_INFO monitor.sv(55) @ 355000: uvm_test_top.env.act.mon [uvm_test_top.env.act.mon] rst=1, AWADDR=0, AWPROT=0, AWVALID=1, WDATA=1639733561, WSTRB=1, WVALID=1, BREADY=0, ARADDR=40, ARPROT=0, ARVALID=0, RREADY=0, AWREADY=1, WREADY=1, BRESP=0, BVALID=0, ARREADY=1, ARPROT=0, RDATA=0, RRESP=0, RVALID=0
UVM_INFO monitor.sv(55) @ 355000: uvm_test_top.env.pass.mon [uvm_test_top.env.pass.mon] rst=1, AWADDR=0, AWPROT=0, AWVALID=1, WDATA=1639733561, WSTRB=1, WVALID=1, BREADY=0, ARADDR=40, ARPROT=0, ARVALID=0, RREADY=0, AWREADY=1, WREADY=1, BRESP=0, BVALID=0, ARREADY=1, ARPROT=0, RDATA=0, RRESP=0, RVALID=0
UVM_INFO scoreboard.sv(53) @ 355000: uvm_test_top.env.sc [SCOREBOARD] DUT: BRESP=0, RDATA=0, RRESP=0
REF: BRESP=0, RDATA=0, RRESP=0


UVM_INFO driver.sv(39) @ 355000: uvm_test_top.env.act.drv [DRV] AWADDR=0, AWPROT=0, AWVALID=1
UVM_INFO driver.sv(46) @ 355000: uvm_test_top.env.act.drv [DRV] WDATA=1639733561, WSTRB=1, WVALID=1
UVM_INFO driver.sv(53) @ 355000: uvm_test_top.env.act.drv [DRV] ARADDR=40, ARPROT=0, ARVALID=0
UVM_INFO driver.sv(60) @ 355000: uvm_test_top.env.act.drv [DRV] BREADY=1
UVM_INFO driver.sv(65) @ 355000: uvm_test_top.env.act.drv [DRV] RREADY=0
UVM_INFO sequences.sv(386) @ 355000: uvm_test_top.env.act.sqr@@wr [SEQ] AWADDR=32, AWPROT=0, AWVALID=1, WDATA=1580988544, WSTRB=1110, WVALID=1, ARADDR=40, ARPROT=0, ARVALID=0, RREADY=0
UVM_INFO monitor.sv(55) @ 365000: uvm_test_top.env.act.mon [uvm_test_top.env.act.mon] rst=1, AWADDR=0, AWPROT=0, AWVALID=1, WDATA=1639733561, WSTRB=1, WVALID=1, BREADY=1, ARADDR=40, ARPROT=0, ARVALID=0, RREADY=0, AWREADY=0, WREADY=0, BRESP=0, BVALID=0, ARREADY=1, ARPROT=0, RDATA=0, RRESP=0, RVALID=0
UVM_INFO monitor.sv(55) @ 365000: uvm_test_top.env.pass.mon [uvm_test_top.env.pass.mon] rst=1, AWADDR=0, AWPROT=0, AWVALID=1, WDATA=1639733561, WSTRB=1, WVALID=1, BREADY=1, ARADDR=40, ARPROT=0, ARVALID=0, RREADY=0, AWREADY=0, WREADY=0, BRESP=0, BVALID=0, ARREADY=1, ARPROT=0, RDATA=0, RRESP=0, RVALID=0
UVM_INFO scoreboard.sv(53) @ 365000: uvm_test_top.env.sc [SCOREBOARD] DUT: BRESP=0, RDATA=0, RRESP=0
REF: BRESP=0, RDATA=0, RRESP=0


UVM_INFO driver.sv(39) @ 365000: uvm_test_top.env.act.drv [DRV] AWADDR=32, AWPROT=0, AWVALID=1
UVM_INFO driver.sv(46) @ 365000: uvm_test_top.env.act.drv [DRV] WDATA=1580988544, WSTRB=1110, WVALID=1
UVM_INFO driver.sv(53) @ 365000: uvm_test_top.env.act.drv [DRV] ARADDR=40, ARPROT=0, ARVALID=0
UVM_INFO driver.sv(60) @ 365000: uvm_test_top.env.act.drv [DRV] BREADY=1
UVM_INFO driver.sv(65) @ 365000: uvm_test_top.env.act.drv [DRV] RREADY=0
UVM_INFO sequences.sv(386) @ 365000: uvm_test_top.env.act.sqr@@wr [SEQ] AWADDR=32, AWPROT=0, AWVALID=1, WDATA=1580988544, WSTRB=1110, WVALID=1, ARADDR=40, ARPROT=0, ARVALID=0, RREADY=1
UVM_INFO monitor.sv(55) @ 375000: uvm_test_top.env.act.mon [uvm_test_top.env.act.mon] rst=1, AWADDR=32, AWPROT=0, AWVALID=1, WDATA=1580988544, WSTRB=14, WVALID=1, BREADY=1, ARADDR=40, ARPROT=0, ARVALID=0, RREADY=0, AWREADY=0, WREADY=0, BRESP=0, BVALID=1, ARREADY=1, ARPROT=0, RDATA=0, RRESP=0, RVALID=0
UVM_INFO monitor.sv(55) @ 375000: uvm_test_top.env.pass.mon [uvm_test_top.env.pass.mon] rst=1, AWADDR=32, AWPROT=0, AWVALID=1, WDATA=1580988544, WSTRB=14, WVALID=1, BREADY=1, ARADDR=40, ARPROT=0, ARVALID=0, RREADY=0, AWREADY=0, WREADY=0, BRESP=0, BVALID=1, ARREADY=1, ARPROT=0, RDATA=0, RRESP=0, RVALID=0
UVM_INFO scoreboard.sv(53) @ 375000: uvm_test_top.env.sc [SCOREBOARD] DUT: BRESP=0, RDATA=0, RRESP=0
REF: BRESP=0, RDATA=0, RRESP=0


UVM_INFO driver.sv(39) @ 375000: uvm_test_top.env.act.drv [DRV] AWADDR=32, AWPROT=0, AWVALID=1
UVM_INFO driver.sv(46) @ 375000: uvm_test_top.env.act.drv [DRV] WDATA=1580988544, WSTRB=1110, WVALID=1
UVM_INFO driver.sv(53) @ 375000: uvm_test_top.env.act.drv [DRV] ARADDR=40, ARPROT=0, ARVALID=0
UVM_INFO driver.sv(60) @ 375000: uvm_test_top.env.act.drv [DRV] BREADY=1
UVM_INFO driver.sv(65) @ 375000: uvm_test_top.env.act.drv [DRV] RREADY=1
UVM_INFO sequences.sv(386) @ 375000: uvm_test_top.env.act.sqr@@wr [SEQ] AWADDR=32, AWPROT=0, AWVALID=1, WDATA=1580988544, WSTRB=1110, WVALID=1, ARADDR=40, ARPROT=0, ARVALID=0, RREADY=0
UVM_INFO monitor.sv(55) @ 385000: uvm_test_top.env.act.mon [uvm_test_top.env.act.mon] rst=1, AWADDR=32, AWPROT=0, AWVALID=1, WDATA=1580988544, WSTRB=14, WVALID=1, BREADY=1, ARADDR=40, ARPROT=0, ARVALID=0, RREADY=1, AWREADY=0, WREADY=0, BRESP=0, BVALID=0, ARREADY=1, ARPROT=0, RDATA=0, RRESP=0, RVALID=0
UVM_INFO monitor.sv(55) @ 385000: uvm_test_top.env.pass.mon [uvm_test_top.env.pass.mon] rst=1, AWADDR=32, AWPROT=0, AWVALID=1, WDATA=1580988544, WSTRB=14, WVALID=1, BREADY=1, ARADDR=40, ARPROT=0, ARVALID=0, RREADY=1, AWREADY=0, WREADY=0, BRESP=0, BVALID=0, ARREADY=1, ARPROT=0, RDATA=0, RRESP=0, RVALID=0
UVM_INFO scoreboard.sv(53) @ 385000: uvm_test_top.env.sc [SCOREBOARD] DUT: BRESP=0, RDATA=0, RRESP=0
REF: BRESP=0, RDATA=0, RRESP=0


UVM_INFO driver.sv(39) @ 385000: uvm_test_top.env.act.drv [DRV] AWADDR=32, AWPROT=0, AWVALID=1
UVM_INFO driver.sv(46) @ 385000: uvm_test_top.env.act.drv [DRV] WDATA=1580988544, WSTRB=1110, WVALID=1
UVM_INFO driver.sv(53) @ 385000: uvm_test_top.env.act.drv [DRV] ARADDR=40, ARPROT=0, ARVALID=0
UVM_INFO driver.sv(60) @ 385000: uvm_test_top.env.act.drv [DRV] BREADY=1
UVM_INFO driver.sv(65) @ 385000: uvm_test_top.env.act.drv [DRV] RREADY=0
UVM_INFO sequences.sv(386) @ 385000: uvm_test_top.env.act.sqr@@wr [SEQ] AWADDR=32, AWPROT=0, AWVALID=1, WDATA=1580988544, WSTRB=1110, WVALID=1, ARADDR=40, ARPROT=0, ARVALID=0, RREADY=0
UVM_INFO monitor.sv(55) @ 395000: uvm_test_top.env.act.mon [uvm_test_top.env.act.mon] rst=1, AWADDR=32, AWPROT=0, AWVALID=1, WDATA=1580988544, WSTRB=14, WVALID=1, BREADY=1, ARADDR=40, ARPROT=0, ARVALID=0, RREADY=0, AWREADY=1, WREADY=1, BRESP=0, BVALID=0, ARREADY=1, ARPROT=0, RDATA=0, RRESP=0, RVALID=0
UVM_INFO monitor.sv(55) @ 395000: uvm_test_top.env.pass.mon [uvm_test_top.env.pass.mon] rst=1, AWADDR=32, AWPROT=0, AWVALID=1, WDATA=1580988544, WSTRB=14, WVALID=1, BREADY=1, ARADDR=40, ARPROT=0, ARVALID=0, RREADY=0, AWREADY=1, WREADY=1, BRESP=0, BVALID=0, ARREADY=1, ARPROT=0, RDATA=0, RRESP=0, RVALID=0
UVM_INFO scoreboard.sv(53) @ 395000: uvm_test_top.env.sc [SCOREBOARD] DUT: BRESP=0, RDATA=0, RRESP=0
REF: BRESP=0, RDATA=0, RRESP=0


UVM_INFO driver.sv(39) @ 395000: uvm_test_top.env.act.drv [DRV] AWADDR=32, AWPROT=0, AWVALID=1
UVM_INFO driver.sv(46) @ 395000: uvm_test_top.env.act.drv [DRV] WDATA=1580988544, WSTRB=1110, WVALID=1
UVM_INFO driver.sv(53) @ 395000: uvm_test_top.env.act.drv [DRV] ARADDR=40, ARPROT=0, ARVALID=0
UVM_INFO driver.sv(60) @ 395000: uvm_test_top.env.act.drv [DRV] BREADY=1
UVM_INFO driver.sv(65) @ 395000: uvm_test_top.env.act.drv [DRV] RREADY=0
UVM_INFO sequences.sv(386) @ 395000: uvm_test_top.env.act.sqr@@wr [SEQ] AWADDR=4, AWPROT=0, AWVALID=1, WDATA=1691305823, WSTRB=1100, WVALID=1, ARADDR=40, ARPROT=0, ARVALID=0, RREADY=1
UVM_INFO monitor.sv(55) @ 405000: uvm_test_top.env.act.mon [uvm_test_top.env.act.mon] rst=1, AWADDR=32, AWPROT=0, AWVALID=1, WDATA=1580988544, WSTRB=14, WVALID=1, BREADY=1, ARADDR=40, ARPROT=0, ARVALID=0, RREADY=0, AWREADY=0, WREADY=0, BRESP=0, BVALID=0, ARREADY=1, ARPROT=0, RDATA=0, RRESP=0, RVALID=0
UVM_INFO monitor.sv(55) @ 405000: uvm_test_top.env.pass.mon [uvm_test_top.env.pass.mon] rst=1, AWADDR=32, AWPROT=0, AWVALID=1, WDATA=1580988544, WSTRB=14, WVALID=1, BREADY=1, ARADDR=40, ARPROT=0, ARVALID=0, RREADY=0, AWREADY=0, WREADY=0, BRESP=0, BVALID=0, ARREADY=1, ARPROT=0, RDATA=0, RRESP=0, RVALID=0
UVM_INFO scoreboard.sv(53) @ 405000: uvm_test_top.env.sc [SCOREBOARD] DUT: BRESP=0, RDATA=0, RRESP=0
REF: BRESP=0, RDATA=0, RRESP=0


UVM_INFO driver.sv(39) @ 405000: uvm_test_top.env.act.drv [DRV] AWADDR=4, AWPROT=0, AWVALID=1
UVM_INFO driver.sv(46) @ 405000: uvm_test_top.env.act.drv [DRV] WDATA=1691305823, WSTRB=1100, WVALID=1
UVM_INFO driver.sv(53) @ 405000: uvm_test_top.env.act.drv [DRV] ARADDR=40, ARPROT=0, ARVALID=0
UVM_INFO driver.sv(60) @ 405000: uvm_test_top.env.act.drv [DRV] BREADY=1
UVM_INFO driver.sv(65) @ 405000: uvm_test_top.env.act.drv [DRV] RREADY=1
UVM_INFO sequences.sv(386) @ 405000: uvm_test_top.env.act.sqr@@wr [SEQ] AWADDR=4, AWPROT=0, AWVALID=1, WDATA=1691305823, WSTRB=1100, WVALID=1, ARADDR=40, ARPROT=0, ARVALID=0, RREADY=0
UVM_INFO monitor.sv(55) @ 415000: uvm_test_top.env.act.mon [uvm_test_top.env.act.mon] rst=1, AWADDR=4, AWPROT=0, AWVALID=1, WDATA=1691305823, WSTRB=12, WVALID=1, BREADY=1, ARADDR=40, ARPROT=0, ARVALID=0, RREADY=1, AWREADY=0, WREADY=0, BRESP=0, BVALID=1, ARREADY=1, ARPROT=0, RDATA=0, RRESP=0, RVALID=0
UVM_INFO monitor.sv(55) @ 415000: uvm_test_top.env.pass.mon [uvm_test_top.env.pass.mon] rst=1, AWADDR=4, AWPROT=0, AWVALID=1, WDATA=1691305823, WSTRB=12, WVALID=1, BREADY=1, ARADDR=40, ARPROT=0, ARVALID=0, RREADY=1, AWREADY=0, WREADY=0, BRESP=0, BVALID=1, ARREADY=1, ARPROT=0, RDATA=0, RRESP=0, RVALID=0
UVM_INFO scoreboard.sv(53) @ 415000: uvm_test_top.env.sc [SCOREBOARD] DUT: BRESP=0, RDATA=0, RRESP=0
REF: BRESP=0, RDATA=0, RRESP=0


UVM_INFO driver.sv(39) @ 415000: uvm_test_top.env.act.drv [DRV] AWADDR=4, AWPROT=0, AWVALID=1
UVM_INFO driver.sv(46) @ 415000: uvm_test_top.env.act.drv [DRV] WDATA=1691305823, WSTRB=1100, WVALID=1
UVM_INFO driver.sv(53) @ 415000: uvm_test_top.env.act.drv [DRV] ARADDR=40, ARPROT=0, ARVALID=0
UVM_INFO driver.sv(60) @ 415000: uvm_test_top.env.act.drv [DRV] BREADY=0
UVM_INFO driver.sv(65) @ 415000: uvm_test_top.env.act.drv [DRV] RREADY=0
UVM_INFO sequences.sv(386) @ 415000: uvm_test_top.env.act.sqr@@wr [SEQ] AWADDR=4, AWPROT=0, AWVALID=1, WDATA=1691305823, WSTRB=1100, WVALID=1, ARADDR=40, ARPROT=0, ARVALID=0, RREADY=0
UVM_INFO monitor.sv(55) @ 425000: uvm_test_top.env.act.mon [uvm_test_top.env.act.mon] rst=1, AWADDR=4, AWPROT=0, AWVALID=1, WDATA=1691305823, WSTRB=12, WVALID=1, BREADY=0, ARADDR=40, ARPROT=0, ARVALID=0, RREADY=0, AWREADY=0, WREADY=0, BRESP=0, BVALID=0, ARREADY=1, ARPROT=0, RDATA=0, RRESP=0, RVALID=0
UVM_INFO monitor.sv(55) @ 425000: uvm_test_top.env.pass.mon [uvm_test_top.env.pass.mon] rst=1, AWADDR=4, AWPROT=0, AWVALID=1, WDATA=1691305823, WSTRB=12, WVALID=1, BREADY=0, ARADDR=40, ARPROT=0, ARVALID=0, RREADY=0, AWREADY=0, WREADY=0, BRESP=0, BVALID=0, ARREADY=1, ARPROT=0, RDATA=0, RRESP=0, RVALID=0
UVM_INFO scoreboard.sv(53) @ 425000: uvm_test_top.env.sc [SCOREBOARD] DUT: BRESP=0, RDATA=0, RRESP=0
REF: BRESP=0, RDATA=0, RRESP=0


UVM_INFO driver.sv(39) @ 425000: uvm_test_top.env.act.drv [DRV] AWADDR=4, AWPROT=0, AWVALID=1
UVM_INFO driver.sv(46) @ 425000: uvm_test_top.env.act.drv [DRV] WDATA=1691305823, WSTRB=1100, WVALID=1
UVM_INFO driver.sv(53) @ 425000: uvm_test_top.env.act.drv [DRV] ARADDR=40, ARPROT=0, ARVALID=0
UVM_INFO driver.sv(60) @ 425000: uvm_test_top.env.act.drv [DRV] BREADY=1
UVM_INFO driver.sv(65) @ 425000: uvm_test_top.env.act.drv [DRV] RREADY=0
UVM_INFO sequences.sv(386) @ 425000: uvm_test_top.env.act.sqr@@wr [SEQ] AWADDR=4, AWPROT=0, AWVALID=1, WDATA=1691305823, WSTRB=1100, WVALID=1, ARADDR=40, ARPROT=0, ARVALID=0, RREADY=0
UVM_INFO monitor.sv(55) @ 435000: uvm_test_top.env.act.mon [uvm_test_top.env.act.mon] rst=1, AWADDR=4, AWPROT=0, AWVALID=1, WDATA=1691305823, WSTRB=12, WVALID=1, BREADY=1, ARADDR=40, ARPROT=0, ARVALID=0, RREADY=0, AWREADY=1, WREADY=1, BRESP=0, BVALID=0, ARREADY=1, ARPROT=0, RDATA=0, RRESP=0, RVALID=0
UVM_INFO monitor.sv(55) @ 435000: uvm_test_top.env.pass.mon [uvm_test_top.env.pass.mon] rst=1, AWADDR=4, AWPROT=0, AWVALID=1, WDATA=1691305823, WSTRB=12, WVALID=1, BREADY=1, ARADDR=40, ARPROT=0, ARVALID=0, RREADY=0, AWREADY=1, WREADY=1, BRESP=0, BVALID=0, ARREADY=1, ARPROT=0, RDATA=0, RRESP=0, RVALID=0
UVM_INFO scoreboard.sv(53) @ 435000: uvm_test_top.env.sc [SCOREBOARD] DUT: BRESP=0, RDATA=0, RRESP=0
REF: BRESP=0, RDATA=0, RRESP=0


UVM_INFO driver.sv(39) @ 435000: uvm_test_top.env.act.drv [DRV] AWADDR=4, AWPROT=0, AWVALID=1
UVM_INFO driver.sv(46) @ 435000: uvm_test_top.env.act.drv [DRV] WDATA=1691305823, WSTRB=1100, WVALID=1
UVM_INFO driver.sv(53) @ 435000: uvm_test_top.env.act.drv [DRV] ARADDR=40, ARPROT=0, ARVALID=0
UVM_INFO driver.sv(60) @ 435000: uvm_test_top.env.act.drv [DRV] BREADY=0
UVM_INFO driver.sv(65) @ 435000: uvm_test_top.env.act.drv [DRV] RREADY=0
UVM_INFO sequences.sv(386) @ 435000: uvm_test_top.env.act.sqr@@wr [SEQ] AWADDR=32, AWPROT=0, AWVALID=1, WDATA=114214612, WSTRB=0, WVALID=1, ARADDR=40, ARPROT=0, ARVALID=0, RREADY=1
UVM_INFO monitor.sv(55) @ 445000: uvm_test_top.env.act.mon [uvm_test_top.env.act.mon] rst=1, AWADDR=4, AWPROT=0, AWVALID=1, WDATA=1691305823, WSTRB=12, WVALID=1, BREADY=0, ARADDR=40, ARPROT=0, ARVALID=0, RREADY=0, AWREADY=0, WREADY=0, BRESP=0, BVALID=0, ARREADY=1, ARPROT=0, RDATA=0, RRESP=0, RVALID=0
UVM_INFO monitor.sv(55) @ 445000: uvm_test_top.env.pass.mon [uvm_test_top.env.pass.mon] rst=1, AWADDR=4, AWPROT=0, AWVALID=1, WDATA=1691305823, WSTRB=12, WVALID=1, BREADY=0, ARADDR=40, ARPROT=0, ARVALID=0, RREADY=0, AWREADY=0, WREADY=0, BRESP=0, BVALID=0, ARREADY=1, ARPROT=0, RDATA=0, RRESP=0, RVALID=0
UVM_INFO scoreboard.sv(53) @ 445000: uvm_test_top.env.sc [SCOREBOARD] DUT: BRESP=0, RDATA=0, RRESP=0
REF: BRESP=0, RDATA=0, RRESP=0


UVM_INFO driver.sv(39) @ 445000: uvm_test_top.env.act.drv [DRV] AWADDR=32, AWPROT=0, AWVALID=1
UVM_INFO driver.sv(46) @ 445000: uvm_test_top.env.act.drv [DRV] WDATA=114214612, WSTRB=0, WVALID=1
UVM_INFO driver.sv(53) @ 445000: uvm_test_top.env.act.drv [DRV] ARADDR=40, ARPROT=0, ARVALID=0
UVM_INFO driver.sv(60) @ 445000: uvm_test_top.env.act.drv [DRV] BREADY=0
UVM_INFO driver.sv(65) @ 445000: uvm_test_top.env.act.drv [DRV] RREADY=1
