Command: vcs -sverilog -ntb_opts uvm -timescale=1ns/1ps -R -full64 +v2k -debug_access+all \
-l fell.log top.sv
                         Chronologic VCS (TM)
      Version Q-2020.03-SP2-8_Full64 -- Wed Sep  9 23:21:37 2026
               Copyright (c) 1991-2020 by Synopsys Inc.
                         ALL RIGHTS RESERVED

This program is proprietary and confidential information of Synopsys Inc.
and may be used and disclosed only as authorized in a license agreement
controlling such use and disclosure.

Parsing design file '/fetools/synopsys/installed_tools/vcs/vcs/Q-2020.03-SP2-8/etc/uvm/uvm_pkg.sv'
Parsing included file '/fetools/synopsys/installed_tools/vcs/vcs/Q-2020.03-SP2-8/etc/uvm/uvm_macros.svh'.
Parsing included file '/fetools/synopsys/installed_tools/vcs/vcs/Q-2020.03-SP2-8/etc/uvm/macros/uvm_version_defines.svh'.
Back to file '/fetools/synopsys/installed_tools/vcs/vcs/Q-2020.03-SP2-8/etc/uvm/uvm_macros.svh'.
Parsing included file '/fetools/synopsys/installed_tools/vcs/vcs/Q-2020.03-SP2-8/etc/uvm/macros/snps_macros.svp'.
Back to file '/fetools/synopsys/installed_tools/vcs/vcs/Q-2020.03-SP2-8/etc/uvm/uvm_macros.svh'.
Parsing included file '/fetools/synopsys/installed_tools/vcs/vcs/Q-2020.03-SP2-8/etc/uvm/macros/uvm_message_defines.svh'.
Back to file '/fetools/synopsys/installed_tools/vcs/vcs/Q-2020.03-SP2-8/etc/uvm/uvm_macros.svh'.
Parsing included file '/fetools/synopsys/installed_tools/vcs/vcs/Q-2020.03-SP2-8/etc/uvm/macros/uvm_phase_defines.svh'.
Back to file '/fetools/synopsys/installed_tools/vcs/vcs/Q-2020.03-SP2-8/etc/uvm/uvm_macros.svh'.
Parsing included file '/fetools/synopsys/installed_tools/vcs/vcs/Q-2020.03-SP2-8/etc/uvm/macros/uvm_object_defines.svh'.
Back to file '/fetools/synopsys/installed_tools/vcs/vcs/Q-2020.03-SP2-8/etc/uvm/uvm_macros.svh'.
Parsing included file '/fetools/synopsys/installed_tools/vcs/vcs/Q-2020.03-SP2-8/etc/uvm/macros/uvm_printer_defines.svh'.
Back to file '/fetools/synopsys/installed_tools/vcs/vcs/Q-2020.03-SP2-8/etc/uvm/uvm_macros.svh'.
Parsing included file '/fetools/synopsys/installed_tools/vcs/vcs/Q-2020.03-SP2-8/etc/uvm/macros/uvm_tlm_defines.svh'.
Parsing included file '/fetools/synopsys/installed_tools/vcs/vcs/Q-2020.03-SP2-8/etc/uvm/tlm1/uvm_tlm_imps.svh'.
Back to file '/fetools/synopsys/installed_tools/vcs/vcs/Q-2020.03-SP2-8/etc/uvm/macros/uvm_tlm_defines.svh'.
Back to file '/fetools/synopsys/installed_tools/vcs/vcs/Q-2020.03-SP2-8/etc/uvm/uvm_macros.svh'.
Parsing included file '/fetools/synopsys/installed_tools/vcs/vcs/Q-2020.03-SP2-8/etc/uvm/macros/uvm_sequence_defines.svh'.
Back to file '/fetools/synopsys/installed_tools/vcs/vcs/Q-2020.03-SP2-8/etc/uvm/uvm_macros.svh'.
Parsing included file '/fetools/synopsys/installed_tools/vcs/vcs/Q-2020.03-SP2-8/etc/uvm/macros/uvm_callback_defines.svh'.
Back to file '/fetools/synopsys/installed_tools/vcs/vcs/Q-2020.03-SP2-8/etc/uvm/uvm_macros.svh'.
Parsing included file '/fetools/synopsys/installed_tools/vcs/vcs/Q-2020.03-SP2-8/etc/uvm/macros/uvm_reg_defines.svh'.
Back to file '/fetools/synopsys/installed_tools/vcs/vcs/Q-2020.03-SP2-8/etc/uvm/uvm_macros.svh'.
Parsing included file '/fetools/synopsys/installed_tools/vcs/vcs/Q-2020.03-SP2-8/etc/uvm/macros/uvm_deprecated_defines.svh'.
Back to file '/fetools/synopsys/installed_tools/vcs/vcs/Q-2020.03-SP2-8/etc/uvm/uvm_macros.svh'.
Back to file '/fetools/synopsys/installed_tools/vcs/vcs/Q-2020.03-SP2-8/etc/uvm/uvm_pkg.sv'.
Parsing included file '/fetools/synopsys/installed_tools/vcs/vcs/Q-2020.03-SP2-8/etc/uvm/directc/uvm_directc.svh'.
Parsing included file '/fetools/synopsys/installed_tools/vcs/vcs/Q-2020.03-SP2-8/etc/uvm/directc/uvm_seed.vh'.
Back to file '/fetools/synopsys/installed_tools/vcs/vcs/Q-2020.03-SP2-8/etc/uvm/directc/uvm_directc.svh'.
Back to file '/fetools/synopsys/installed_tools/vcs/vcs/Q-2020.03-SP2-8/etc/uvm/uvm_pkg.sv'.
Parsing included file '/fetools/synopsys/installed_tools/vcs/vcs/Q-2020.03-SP2-8/etc/uvm/dpi/uvm_dpi.svh'.
Parsing included file '/fetools/synopsys/installed_tools/vcs/vcs/Q-2020.03-SP2-8/etc/uvm/dpi/uvm_hdl.svh'.
Back to file '/fetools/synopsys/installed_tools/vcs/vcs/Q-2020.03-SP2-8/etc/uvm/dpi/uvm_dpi.svh'.
Parsing included file '/fetools/synopsys/installed_tools/vcs/vcs/Q-2020.03-SP2-8/etc/uvm/dpi/uvm_svcmd_dpi.svh'.
Back to file '/fetools/synopsys/installed_tools/vcs/vcs/Q-2020.03-SP2-8/etc/uvm/dpi/uvm_dpi.svh'.
Parsing included file '/fetools/synopsys/installed_tools/vcs/vcs/Q-2020.03-SP2-8/etc/uvm/dpi/uvm_regex.svh'.
Back to file '/fetools/synopsys/installed_tools/vcs/vcs/Q-2020.03-SP2-8/etc/uvm/dpi/uvm_dpi.svh'.
Back to file '/fetools/synopsys/installed_tools/vcs/vcs/Q-2020.03-SP2-8/etc/uvm/uvm_pkg.sv'.
Parsing included file '/fetools/synopsys/installed_tools/vcs/vcs/Q-2020.03-SP2-8/etc/uvm/base/uvm_base.svh'.
Parsing included file '/fetools/synopsys/installed_tools/vcs/vcs/Q-2020.03-SP2-8/etc/uvm/base/uvm_version.svh'.
Back to file '/fetools/synopsys/installed_tools/vcs/vcs/Q-2020.03-SP2-8/etc/uvm/base/uvm_base.svh'.
Parsing included file '/fetools/synopsys/installed_tools/vcs/vcs/Q-2020.03-SP2-8/etc/uvm/base/uvm_object_globals.svh'.
Back to file '/fetools/synopsys/installed_tools/vcs/vcs/Q-2020.03-SP2-8/etc/uvm/base/uvm_base.svh'.
Parsing included file '/fetools/synopsys/installed_tools/vcs/vcs/Q-2020.03-SP2-8/etc/uvm/base/uvm_misc.svh'.
Back to file '/fetools/synopsys/installed_tools/vcs/vcs/Q-2020.03-SP2-8/etc/uvm/base/uvm_base.svh'.
Parsing included file '/fetools/synopsys/installed_tools/vcs/vcs/Q-2020.03-SP2-8/etc/uvm/base/uvm_object.svh'.
Back to file '/fetools/synopsys/installed_tools/vcs/vcs/Q-2020.03-SP2-8/etc/uvm/base/uvm_base.svh'.
Parsing included file '/fetools/synopsys/installed_tools/vcs/vcs/Q-2020.03-SP2-8/etc/uvm/base/uvm_pool.svh'.
Back to file '/fetools/synopsys/installed_tools/vcs/vcs/Q-2020.03-SP2-8/etc/uvm/base/uvm_base.svh'.
Parsing included file '/fetools/synopsys/installed_tools/vcs/vcs/Q-2020.03-SP2-8/etc/uvm/base/uvm_queue.svh'.
Back to file '/fetools/synopsys/installed_tools/vcs/vcs/Q-2020.03-SP2-8/etc/uvm/base/uvm_base.svh'.
Parsing included file '/fetools/synopsys/installed_tools/vcs/vcs/Q-2020.03-SP2-8/etc/uvm/base/uvm_factory.svh'.
Back to file '/fetools/synopsys/installed_tools/vcs/vcs/Q-2020.03-SP2-8/etc/uvm/base/uvm_base.svh'.
Parsing included file '/fetools/synopsys/installed_tools/vcs/vcs/Q-2020.03-SP2-8/etc/uvm/base/uvm_registry.svh'.
Back to file '/fetools/synopsys/installed_tools/vcs/vcs/Q-2020.03-SP2-8/etc/uvm/base/uvm_base.svh'.
Parsing included file '/fetools/synopsys/installed_tools/vcs/vcs/Q-2020.03-SP2-8/etc/uvm/base/uvm_spell_chkr.svh'.
Back to file '/fetools/synopsys/installed_tools/vcs/vcs/Q-2020.03-SP2-8/etc/uvm/base/uvm_base.svh'.
Parsing included file '/fetools/synopsys/installed_tools/vcs/vcs/Q-2020.03-SP2-8/etc/uvm/base/uvm_resource.svh'.
Back to file '/fetools/synopsys/installed_tools/vcs/vcs/Q-2020.03-SP2-8/etc/uvm/base/uvm_base.svh'.
Parsing included file '/fetools/synopsys/installed_tools/vcs/vcs/Q-2020.03-SP2-8/etc/uvm/deprecated/uvm_resource_converter.svh'.
Back to file '/fetools/synopsys/installed_tools/vcs/vcs/Q-2020.03-SP2-8/etc/uvm/base/uvm_base.svh'.
Parsing included file '/fetools/synopsys/installed_tools/vcs/vcs/Q-2020.03-SP2-8/etc/uvm/base/uvm_resource_specializations.svh'.
Back to file '/fetools/synopsys/installed_tools/vcs/vcs/Q-2020.03-SP2-8/etc/uvm/base/uvm_base.svh'.
Parsing included file '/fetools/synopsys/installed_tools/vcs/vcs/Q-2020.03-SP2-8/etc/uvm/base/uvm_resource_db.svh'.
Back to file '/fetools/synopsys/installed_tools/vcs/vcs/Q-2020.03-SP2-8/etc/uvm/base/uvm_base.svh'.
Parsing included file '/fetools/synopsys/installed_tools/vcs/vcs/Q-2020.03-SP2-8/etc/uvm/base/uvm_config_db.svh'.
Back to file '/fetools/synopsys/installed_tools/vcs/vcs/Q-2020.03-SP2-8/etc/uvm/base/uvm_base.svh'.
Parsing included file '/fetools/synopsys/installed_tools/vcs/vcs/Q-2020.03-SP2-8/etc/uvm/base/uvm_printer.svh'.
Back to file '/fetools/synopsys/installed_tools/vcs/vcs/Q-2020.03-SP2-8/etc/uvm/base/uvm_base.svh'.
Parsing included file '/fetools/synopsys/installed_tools/vcs/vcs/Q-2020.03-SP2-8/etc/uvm/base/uvm_comparer.svh'.
Back to file '/fetools/synopsys/installed_tools/vcs/vcs/Q-2020.03-SP2-8/etc/uvm/base/uvm_base.svh'.
Parsing included file '/fetools/synopsys/installed_tools/vcs/vcs/Q-2020.03-SP2-8/etc/uvm/base/uvm_packer.svh'.
Back to file '/fetools/synopsys/installed_tools/vcs/vcs/Q-2020.03-SP2-8/etc/uvm/base/uvm_base.svh'.
Parsing included file '/fetools/synopsys/installed_tools/vcs/vcs/Q-2020.03-SP2-8/etc/uvm/base/uvm_recorder.svh'.
Back to file '/fetools/synopsys/installed_tools/vcs/vcs/Q-2020.03-SP2-8/etc/uvm/base/uvm_base.svh'.
Parsing included file '/fetools/synopsys/installed_tools/vcs/vcs/Q-2020.03-SP2-8/etc/uvm/base/uvm_event_callback.svh'.
Back to file '/fetools/synopsys/installed_tools/vcs/vcs/Q-2020.03-SP2-8/etc/uvm/base/uvm_base.svh'.
Parsing included file '/fetools/synopsys/installed_tools/vcs/vcs/Q-2020.03-SP2-8/etc/uvm/base/uvm_event.svh'.
Back to file '/fetools/synopsys/installed_tools/vcs/vcs/Q-2020.03-SP2-8/etc/uvm/base/uvm_base.svh'.
Parsing included file '/fetools/synopsys/installed_tools/vcs/vcs/Q-2020.03-SP2-8/etc/uvm/base/uvm_barrier.svh'.
Back to file '/fetools/synopsys/installed_tools/vcs/vcs/Q-2020.03-SP2-8/etc/uvm/base/uvm_base.svh'.
Parsing included file '/fetools/synopsys/installed_tools/vcs/vcs/Q-2020.03-SP2-8/etc/uvm/base/uvm_callback.svh'.
Parsing included file '/fetools/synopsys/installed_tools/vcs/vcs/Q-2020.03-SP2-8/etc/uvm/uvm_macros.svh'.
Back to file '/fetools/synopsys/installed_tools/vcs/vcs/Q-2020.03-SP2-8/etc/uvm/base/uvm_callback.svh'.
Back to file '/fetools/synopsys/installed_tools/vcs/vcs/Q-2020.03-SP2-8/etc/uvm/base/uvm_base.svh'.
Parsing included file '/fetools/synopsys/installed_tools/vcs/vcs/Q-2020.03-SP2-8/etc/uvm/base/uvm_report_catcher.svh'.
Back to file '/fetools/synopsys/installed_tools/vcs/vcs/Q-2020.03-SP2-8/etc/uvm/base/uvm_base.svh'.
Parsing included file '/fetools/synopsys/installed_tools/vcs/vcs/Q-2020.03-SP2-8/etc/uvm/base/uvm_report_server.svh'.
Back to file '/fetools/synopsys/installed_tools/vcs/vcs/Q-2020.03-SP2-8/etc/uvm/base/uvm_base.svh'.
Parsing included file '/fetools/synopsys/installed_tools/vcs/vcs/Q-2020.03-SP2-8/etc/uvm/base/uvm_report_handler.svh'.
Back to file '/fetools/synopsys/installed_tools/vcs/vcs/Q-2020.03-SP2-8/etc/uvm/base/uvm_base.svh'.
Parsing included file '/fetools/synopsys/installed_tools/vcs/vcs/Q-2020.03-SP2-8/etc/uvm/base/uvm_report_object.svh'.
Back to file '/fetools/synopsys/installed_tools/vcs/vcs/Q-2020.03-SP2-8/etc/uvm/base/uvm_base.svh'.
Parsing included file '/fetools/synopsys/installed_tools/vcs/vcs/Q-2020.03-SP2-8/etc/uvm/base/uvm_transaction.svh'.
Back to file '/fetools/synopsys/installed_tools/vcs/vcs/Q-2020.03-SP2-8/etc/uvm/base/uvm_base.svh'.
Parsing included file '/fetools/synopsys/installed_tools/vcs/vcs/Q-2020.03-SP2-8/etc/uvm/base/uvm_phase.svh'.
Back to file '/fetools/synopsys/installed_tools/vcs/vcs/Q-2020.03-SP2-8/etc/uvm/base/uvm_base.svh'.
Parsing included file '/fetools/synopsys/installed_tools/vcs/vcs/Q-2020.03-SP2-8/etc/uvm/base/uvm_domain.svh'.
Back to file '/fetools/synopsys/installed_tools/vcs/vcs/Q-2020.03-SP2-8/etc/uvm/base/uvm_base.svh'.
Parsing included file '/fetools/synopsys/installed_tools/vcs/vcs/Q-2020.03-SP2-8/etc/uvm/base/uvm_bottomup_phase.svh'.
Back to file '/fetools/synopsys/installed_tools/vcs/vcs/Q-2020.03-SP2-8/etc/uvm/base/uvm_base.svh'.
Parsing included file '/fetools/synopsys/installed_tools/vcs/vcs/Q-2020.03-SP2-8/etc/uvm/base/uvm_topdown_phase.svh'.
Back to file '/fetools/synopsys/installed_tools/vcs/vcs/Q-2020.03-SP2-8/etc/uvm/base/uvm_base.svh'.
Parsing included file '/fetools/synopsys/installed_tools/vcs/vcs/Q-2020.03-SP2-8/etc/uvm/base/uvm_task_phase.svh'.
Back to file '/fetools/synopsys/installed_tools/vcs/vcs/Q-2020.03-SP2-8/etc/uvm/base/uvm_base.svh'.
Parsing included file '/fetools/synopsys/installed_tools/vcs/vcs/Q-2020.03-SP2-8/etc/uvm/base/uvm_common_phases.svh'.
Back to file '/fetools/synopsys/installed_tools/vcs/vcs/Q-2020.03-SP2-8/etc/uvm/base/uvm_base.svh'.
Parsing included file '/fetools/synopsys/installed_tools/vcs/vcs/Q-2020.03-SP2-8/etc/uvm/base/uvm_runtime_phases.svh'.
Back to file '/fetools/synopsys/installed_tools/vcs/vcs/Q-2020.03-SP2-8/etc/uvm/base/uvm_base.svh'.
Parsing included file '/fetools/synopsys/installed_tools/vcs/vcs/Q-2020.03-SP2-8/etc/uvm/base/uvm_component.svh'.
Parsing included file '/fetools/synopsys/installed_tools/vcs/vcs/Q-2020.03-SP2-8/etc/uvm/base/uvm_root.svh'.
Back to file '/fetools/synopsys/installed_tools/vcs/vcs/Q-2020.03-SP2-8/etc/uvm/base/uvm_component.svh'.
Back to file '/fetools/synopsys/installed_tools/vcs/vcs/Q-2020.03-SP2-8/etc/uvm/base/uvm_base.svh'.
Parsing included file '/fetools/synopsys/installed_tools/vcs/vcs/Q-2020.03-SP2-8/etc/uvm/base/uvm_objection.svh'.
Back to file '/fetools/synopsys/installed_tools/vcs/vcs/Q-2020.03-SP2-8/etc/uvm/base/uvm_base.svh'.
Parsing included file '/fetools/synopsys/installed_tools/vcs/vcs/Q-2020.03-SP2-8/etc/uvm/base/uvm_heartbeat.svh'.
Back to file '/fetools/synopsys/installed_tools/vcs/vcs/Q-2020.03-SP2-8/etc/uvm/base/uvm_base.svh'.
Parsing included file '/fetools/synopsys/installed_tools/vcs/vcs/Q-2020.03-SP2-8/etc/uvm/base/uvm_globals.svh'.
Back to file '/fetools/synopsys/installed_tools/vcs/vcs/Q-2020.03-SP2-8/etc/uvm/base/uvm_base.svh'.
Parsing included file '/fetools/synopsys/installed_tools/vcs/vcs/Q-2020.03-SP2-8/etc/uvm/base/uvm_cmdline_processor.svh'.
Back to file '/fetools/synopsys/installed_tools/vcs/vcs/Q-2020.03-SP2-8/etc/uvm/base/uvm_base.svh'.
Back to file '/fetools/synopsys/installed_tools/vcs/vcs/Q-2020.03-SP2-8/etc/uvm/uvm_pkg.sv'.
Parsing included file '/fetools/synopsys/installed_tools/vcs/vcs/Q-2020.03-SP2-8/etc/uvm/tlm1/uvm_tlm.svh'.
Parsing included file '/fetools/synopsys/installed_tools/vcs/vcs/Q-2020.03-SP2-8/etc/uvm/tlm1/uvm_tlm_ifs.svh'.
Back to file '/fetools/synopsys/installed_tools/vcs/vcs/Q-2020.03-SP2-8/etc/uvm/tlm1/uvm_tlm.svh'.
Parsing included file '/fetools/synopsys/installed_tools/vcs/vcs/Q-2020.03-SP2-8/etc/uvm/tlm1/uvm_sqr_ifs.svh'.
Back to file '/fetools/synopsys/installed_tools/vcs/vcs/Q-2020.03-SP2-8/etc/uvm/tlm1/uvm_tlm.svh'.
Parsing included file '/fetools/synopsys/installed_tools/vcs/vcs/Q-2020.03-SP2-8/etc/uvm/base/uvm_port_base.svh'.
Back to file '/fetools/synopsys/installed_tools/vcs/vcs/Q-2020.03-SP2-8/etc/uvm/tlm1/uvm_tlm.svh'.
Parsing included file '/fetools/synopsys/installed_tools/vcs/vcs/Q-2020.03-SP2-8/etc/uvm/tlm1/uvm_tlm_imps.svh'.
Back to file '/fetools/synopsys/installed_tools/vcs/vcs/Q-2020.03-SP2-8/etc/uvm/tlm1/uvm_tlm.svh'.
Parsing included file '/fetools/synopsys/installed_tools/vcs/vcs/Q-2020.03-SP2-8/etc/uvm/tlm1/uvm_imps.svh'.
Back to file '/fetools/synopsys/installed_tools/vcs/vcs/Q-2020.03-SP2-8/etc/uvm/tlm1/uvm_tlm.svh'.
Parsing included file '/fetools/synopsys/installed_tools/vcs/vcs/Q-2020.03-SP2-8/etc/uvm/tlm1/uvm_ports.svh'.
Back to file '/fetools/synopsys/installed_tools/vcs/vcs/Q-2020.03-SP2-8/etc/uvm/tlm1/uvm_tlm.svh'.
Parsing included file '/fetools/synopsys/installed_tools/vcs/vcs/Q-2020.03-SP2-8/etc/uvm/tlm1/uvm_exports.svh'.
Back to file '/fetools/synopsys/installed_tools/vcs/vcs/Q-2020.03-SP2-8/etc/uvm/tlm1/uvm_tlm.svh'.
Parsing included file '/fetools/synopsys/installed_tools/vcs/vcs/Q-2020.03-SP2-8/etc/uvm/tlm1/uvm_analysis_port.svh'.
Back to file '/fetools/synopsys/installed_tools/vcs/vcs/Q-2020.03-SP2-8/etc/uvm/tlm1/uvm_tlm.svh'.
Parsing included file '/fetools/synopsys/installed_tools/vcs/vcs/Q-2020.03-SP2-8/etc/uvm/tlm1/uvm_tlm_fifo_base.svh'.
Back to file '/fetools/synopsys/installed_tools/vcs/vcs/Q-2020.03-SP2-8/etc/uvm/tlm1/uvm_tlm.svh'.
Parsing included file '/fetools/synopsys/installed_tools/vcs/vcs/Q-2020.03-SP2-8/etc/uvm/tlm1/uvm_tlm_fifos.svh'.
Back to file '/fetools/synopsys/installed_tools/vcs/vcs/Q-2020.03-SP2-8/etc/uvm/tlm1/uvm_tlm.svh'.
Parsing included file '/fetools/synopsys/installed_tools/vcs/vcs/Q-2020.03-SP2-8/etc/uvm/tlm1/uvm_tlm_req_rsp.svh'.
Back to file '/fetools/synopsys/installed_tools/vcs/vcs/Q-2020.03-SP2-8/etc/uvm/tlm1/uvm_tlm.svh'.
Parsing included file '/fetools/synopsys/installed_tools/vcs/vcs/Q-2020.03-SP2-8/etc/uvm/tlm1/uvm_sqr_connections.svh'.
Back to file '/fetools/synopsys/installed_tools/vcs/vcs/Q-2020.03-SP2-8/etc/uvm/tlm1/uvm_tlm.svh'.
Back to file '/fetools/synopsys/installed_tools/vcs/vcs/Q-2020.03-SP2-8/etc/uvm/uvm_pkg.sv'.
Parsing included file '/fetools/synopsys/installed_tools/vcs/vcs/Q-2020.03-SP2-8/etc/uvm/comps/uvm_comps.svh'.
Parsing included file '/fetools/synopsys/installed_tools/vcs/vcs/Q-2020.03-SP2-8/etc/uvm/comps/uvm_pair.svh'.
Back to file '/fetools/synopsys/installed_tools/vcs/vcs/Q-2020.03-SP2-8/etc/uvm/comps/uvm_comps.svh'.
Parsing included file '/fetools/synopsys/installed_tools/vcs/vcs/Q-2020.03-SP2-8/etc/uvm/comps/uvm_policies.svh'.
Back to file '/fetools/synopsys/installed_tools/vcs/vcs/Q-2020.03-SP2-8/etc/uvm/comps/uvm_comps.svh'.
Parsing included file '/fetools/synopsys/installed_tools/vcs/vcs/Q-2020.03-SP2-8/etc/uvm/comps/uvm_in_order_comparator.svh'.
Back to file '/fetools/synopsys/installed_tools/vcs/vcs/Q-2020.03-SP2-8/etc/uvm/comps/uvm_comps.svh'.
Parsing included file '/fetools/synopsys/installed_tools/vcs/vcs/Q-2020.03-SP2-8/etc/uvm/comps/uvm_algorithmic_comparator.svh'.
Back to file '/fetools/synopsys/installed_tools/vcs/vcs/Q-2020.03-SP2-8/etc/uvm/comps/uvm_comps.svh'.
Parsing included file '/fetools/synopsys/installed_tools/vcs/vcs/Q-2020.03-SP2-8/etc/uvm/comps/uvm_random_stimulus.svh'.
Back to file '/fetools/synopsys/installed_tools/vcs/vcs/Q-2020.03-SP2-8/etc/uvm/comps/uvm_comps.svh'.
Parsing included file '/fetools/synopsys/installed_tools/vcs/vcs/Q-2020.03-SP2-8/etc/uvm/comps/uvm_subscriber.svh'.
Back to file '/fetools/synopsys/installed_tools/vcs/vcs/Q-2020.03-SP2-8/etc/uvm/comps/uvm_comps.svh'.
Parsing included file '/fetools/synopsys/installed_tools/vcs/vcs/Q-2020.03-SP2-8/etc/uvm/comps/uvm_monitor.svh'.
Back to file '/fetools/synopsys/installed_tools/vcs/vcs/Q-2020.03-SP2-8/etc/uvm/comps/uvm_comps.svh'.
Parsing included file '/fetools/synopsys/installed_tools/vcs/vcs/Q-2020.03-SP2-8/etc/uvm/comps/uvm_driver.svh'.
Back to file '/fetools/synopsys/installed_tools/vcs/vcs/Q-2020.03-SP2-8/etc/uvm/comps/uvm_comps.svh'.
Parsing included file '/fetools/synopsys/installed_tools/vcs/vcs/Q-2020.03-SP2-8/etc/uvm/comps/uvm_push_driver.svh'.
Back to file '/fetools/synopsys/installed_tools/vcs/vcs/Q-2020.03-SP2-8/etc/uvm/comps/uvm_comps.svh'.
Parsing included file '/fetools/synopsys/installed_tools/vcs/vcs/Q-2020.03-SP2-8/etc/uvm/comps/uvm_scoreboard.svh'.
Back to file '/fetools/synopsys/installed_tools/vcs/vcs/Q-2020.03-SP2-8/etc/uvm/comps/uvm_comps.svh'.
Parsing included file '/fetools/synopsys/installed_tools/vcs/vcs/Q-2020.03-SP2-8/etc/uvm/comps/uvm_agent.svh'.
Back to file '/fetools/synopsys/installed_tools/vcs/vcs/Q-2020.03-SP2-8/etc/uvm/comps/uvm_comps.svh'.
Parsing included file '/fetools/synopsys/installed_tools/vcs/vcs/Q-2020.03-SP2-8/etc/uvm/comps/uvm_env.svh'.
Back to file '/fetools/synopsys/installed_tools/vcs/vcs/Q-2020.03-SP2-8/etc/uvm/comps/uvm_comps.svh'.
Parsing included file '/fetools/synopsys/installed_tools/vcs/vcs/Q-2020.03-SP2-8/etc/uvm/comps/uvm_test.svh'.
Back to file '/fetools/synopsys/installed_tools/vcs/vcs/Q-2020.03-SP2-8/etc/uvm/comps/uvm_comps.svh'.
Back to file '/fetools/synopsys/installed_tools/vcs/vcs/Q-2020.03-SP2-8/etc/uvm/uvm_pkg.sv'.
Parsing included file '/fetools/synopsys/installed_tools/vcs/vcs/Q-2020.03-SP2-8/etc/uvm/seq/uvm_seq.svh'.
Parsing included file '/fetools/synopsys/installed_tools/vcs/vcs/Q-2020.03-SP2-8/etc/uvm/seq/uvm_sequence_item.svh'.
Back to file '/fetools/synopsys/installed_tools/vcs/vcs/Q-2020.03-SP2-8/etc/uvm/seq/uvm_seq.svh'.
Parsing included file '/fetools/synopsys/installed_tools/vcs/vcs/Q-2020.03-SP2-8/etc/uvm/seq/uvm_sequencer_base.svh'.
Back to file '/fetools/synopsys/installed_tools/vcs/vcs/Q-2020.03-SP2-8/etc/uvm/seq/uvm_seq.svh'.
Parsing included file '/fetools/synopsys/installed_tools/vcs/vcs/Q-2020.03-SP2-8/etc/uvm/seq/uvm_sequencer_analysis_fifo.svh'.
Back to file '/fetools/synopsys/installed_tools/vcs/vcs/Q-2020.03-SP2-8/etc/uvm/seq/uvm_seq.svh'.
Parsing included file '/fetools/synopsys/installed_tools/vcs/vcs/Q-2020.03-SP2-8/etc/uvm/seq/uvm_sequencer_param_base.svh'.
Back to file '/fetools/synopsys/installed_tools/vcs/vcs/Q-2020.03-SP2-8/etc/uvm/seq/uvm_seq.svh'.
Parsing included file '/fetools/synopsys/installed_tools/vcs/vcs/Q-2020.03-SP2-8/etc/uvm/seq/uvm_sequencer.svh'.
Back to file '/fetools/synopsys/installed_tools/vcs/vcs/Q-2020.03-SP2-8/etc/uvm/seq/uvm_seq.svh'.
Parsing included file '/fetools/synopsys/installed_tools/vcs/vcs/Q-2020.03-SP2-8/etc/uvm/seq/uvm_push_sequencer.svh'.
Back to file '/fetools/synopsys/installed_tools/vcs/vcs/Q-2020.03-SP2-8/etc/uvm/seq/uvm_seq.svh'.
Parsing included file '/fetools/synopsys/installed_tools/vcs/vcs/Q-2020.03-SP2-8/etc/uvm/seq/uvm_sequence_base.svh'.
Back to file '/fetools/synopsys/installed_tools/vcs/vcs/Q-2020.03-SP2-8/etc/uvm/seq/uvm_seq.svh'.
Parsing included file '/fetools/synopsys/installed_tools/vcs/vcs/Q-2020.03-SP2-8/etc/uvm/seq/uvm_sequence.svh'.
Back to file '/fetools/synopsys/installed_tools/vcs/vcs/Q-2020.03-SP2-8/etc/uvm/seq/uvm_seq.svh'.
Parsing included file '/fetools/synopsys/installed_tools/vcs/vcs/Q-2020.03-SP2-8/etc/uvm/seq/uvm_sequence_library.svh'.
Back to file '/fetools/synopsys/installed_tools/vcs/vcs/Q-2020.03-SP2-8/etc/uvm/seq/uvm_seq.svh'.
Parsing included file '/fetools/synopsys/installed_tools/vcs/vcs/Q-2020.03-SP2-8/etc/uvm/seq/uvm_sequence_builtin.svh'.
Back to file '/fetools/synopsys/installed_tools/vcs/vcs/Q-2020.03-SP2-8/etc/uvm/seq/uvm_seq.svh'.
Back to file '/fetools/synopsys/installed_tools/vcs/vcs/Q-2020.03-SP2-8/etc/uvm/uvm_pkg.sv'.
Parsing included file '/fetools/synopsys/installed_tools/vcs/vcs/Q-2020.03-SP2-8/etc/uvm/tlm2/uvm_tlm2.svh'.
Parsing included file '/fetools/synopsys/installed_tools/vcs/vcs/Q-2020.03-SP2-8/etc/uvm/tlm2/uvm_tlm2_defines.svh'.
Back to file '/fetools/synopsys/installed_tools/vcs/vcs/Q-2020.03-SP2-8/etc/uvm/tlm2/uvm_tlm2.svh'.
Parsing included file '/fetools/synopsys/installed_tools/vcs/vcs/Q-2020.03-SP2-8/etc/uvm/tlm2/uvm_tlm2_time.svh'.
Back to file '/fetools/synopsys/installed_tools/vcs/vcs/Q-2020.03-SP2-8/etc/uvm/tlm2/uvm_tlm2.svh'.
Parsing included file '/fetools/synopsys/installed_tools/vcs/vcs/Q-2020.03-SP2-8/etc/uvm/tlm2/uvm_tlm2_generic_payload.svh'.
Back to file '/fetools/synopsys/installed_tools/vcs/vcs/Q-2020.03-SP2-8/etc/uvm/tlm2/uvm_tlm2.svh'.
Parsing included file '/fetools/synopsys/installed_tools/vcs/vcs/Q-2020.03-SP2-8/etc/uvm/tlm2/uvm_tlm2_ifs.svh'.
Back to file '/fetools/synopsys/installed_tools/vcs/vcs/Q-2020.03-SP2-8/etc/uvm/tlm2/uvm_tlm2.svh'.
Parsing included file '/fetools/synopsys/installed_tools/vcs/vcs/Q-2020.03-SP2-8/etc/uvm/tlm2/uvm_tlm2_imps.svh'.
Back to file '/fetools/synopsys/installed_tools/vcs/vcs/Q-2020.03-SP2-8/etc/uvm/tlm2/uvm_tlm2.svh'.
Parsing included file '/fetools/synopsys/installed_tools/vcs/vcs/Q-2020.03-SP2-8/etc/uvm/tlm2/uvm_tlm2_ports.svh'.
Back to file '/fetools/synopsys/installed_tools/vcs/vcs/Q-2020.03-SP2-8/etc/uvm/tlm2/uvm_tlm2.svh'.
Parsing included file '/fetools/synopsys/installed_tools/vcs/vcs/Q-2020.03-SP2-8/etc/uvm/tlm2/uvm_tlm2_exports.svh'.
Back to file '/fetools/synopsys/installed_tools/vcs/vcs/Q-2020.03-SP2-8/etc/uvm/tlm2/uvm_tlm2.svh'.
Parsing included file '/fetools/synopsys/installed_tools/vcs/vcs/Q-2020.03-SP2-8/etc/uvm/tlm2/uvm_tlm2_sockets_base.svh'.
Back to file '/fetools/synopsys/installed_tools/vcs/vcs/Q-2020.03-SP2-8/etc/uvm/tlm2/uvm_tlm2.svh'.
Parsing included file '/fetools/synopsys/installed_tools/vcs/vcs/Q-2020.03-SP2-8/etc/uvm/tlm2/uvm_tlm2_sockets.svh'.
Back to file '/fetools/synopsys/installed_tools/vcs/vcs/Q-2020.03-SP2-8/etc/uvm/tlm2/uvm_tlm2.svh'.
Back to file '/fetools/synopsys/installed_tools/vcs/vcs/Q-2020.03-SP2-8/etc/uvm/uvm_pkg.sv'.
Parsing included file '/fetools/synopsys/installed_tools/vcs/vcs/Q-2020.03-SP2-8/etc/uvm/reg/uvm_reg_model.svh'.
Parsing included file '/fetools/synopsys/installed_tools/vcs/vcs/Q-2020.03-SP2-8/etc/uvm/reg/uvm_reg_item.svh'.
Back to file '/fetools/synopsys/installed_tools/vcs/vcs/Q-2020.03-SP2-8/etc/uvm/reg/uvm_reg_model.svh'.
Parsing included file '/fetools/synopsys/installed_tools/vcs/vcs/Q-2020.03-SP2-8/etc/uvm/reg/uvm_reg_adapter.svh'.
Back to file '/fetools/synopsys/installed_tools/vcs/vcs/Q-2020.03-SP2-8/etc/uvm/reg/uvm_reg_model.svh'.
Parsing included file '/fetools/synopsys/installed_tools/vcs/vcs/Q-2020.03-SP2-8/etc/uvm/reg/uvm_reg_predictor.svh'.
Back to file '/fetools/synopsys/installed_tools/vcs/vcs/Q-2020.03-SP2-8/etc/uvm/reg/uvm_reg_model.svh'.
Parsing included file '/fetools/synopsys/installed_tools/vcs/vcs/Q-2020.03-SP2-8/etc/uvm/reg/uvm_reg_sequence.svh'.
Back to file '/fetools/synopsys/installed_tools/vcs/vcs/Q-2020.03-SP2-8/etc/uvm/reg/uvm_reg_model.svh'.
Parsing included file '/fetools/synopsys/installed_tools/vcs/vcs/Q-2020.03-SP2-8/etc/uvm/reg/uvm_reg_cbs.svh'.
Back to file '/fetools/synopsys/installed_tools/vcs/vcs/Q-2020.03-SP2-8/etc/uvm/reg/uvm_reg_model.svh'.
Parsing included file '/fetools/synopsys/installed_tools/vcs/vcs/Q-2020.03-SP2-8/etc/uvm/reg/uvm_reg_backdoor.svh'.
Back to file '/fetools/synopsys/installed_tools/vcs/vcs/Q-2020.03-SP2-8/etc/uvm/reg/uvm_reg_model.svh'.
Parsing included file '/fetools/synopsys/installed_tools/vcs/vcs/Q-2020.03-SP2-8/etc/uvm/reg/uvm_reg_field.svh'.
Back to file '/fetools/synopsys/installed_tools/vcs/vcs/Q-2020.03-SP2-8/etc/uvm/reg/uvm_reg_model.svh'.
Parsing included file '/fetools/synopsys/installed_tools/vcs/vcs/Q-2020.03-SP2-8/etc/uvm/reg/uvm_vreg_field.svh'.
Back to file '/fetools/synopsys/installed_tools/vcs/vcs/Q-2020.03-SP2-8/etc/uvm/reg/uvm_reg_model.svh'.
Parsing included file '/fetools/synopsys/installed_tools/vcs/vcs/Q-2020.03-SP2-8/etc/uvm/reg/uvm_reg.svh'.
Back to file '/fetools/synopsys/installed_tools/vcs/vcs/Q-2020.03-SP2-8/etc/uvm/reg/uvm_reg_model.svh'.
Parsing included file '/fetools/synopsys/installed_tools/vcs/vcs/Q-2020.03-SP2-8/etc/uvm/reg/uvm_reg_indirect.svh'.
Back to file '/fetools/synopsys/installed_tools/vcs/vcs/Q-2020.03-SP2-8/etc/uvm/reg/uvm_reg_model.svh'.
Parsing included file '/fetools/synopsys/installed_tools/vcs/vcs/Q-2020.03-SP2-8/etc/uvm/reg/uvm_reg_fifo.svh'.
Back to file '/fetools/synopsys/installed_tools/vcs/vcs/Q-2020.03-SP2-8/etc/uvm/reg/uvm_reg_model.svh'.
Parsing included file '/fetools/synopsys/installed_tools/vcs/vcs/Q-2020.03-SP2-8/etc/uvm/reg/uvm_reg_file.svh'.
Back to file '/fetools/synopsys/installed_tools/vcs/vcs/Q-2020.03-SP2-8/etc/uvm/reg/uvm_reg_model.svh'.
Parsing included file '/fetools/synopsys/installed_tools/vcs/vcs/Q-2020.03-SP2-8/etc/uvm/reg/uvm_mem_mam.svh'.
Back to file '/fetools/synopsys/installed_tools/vcs/vcs/Q-2020.03-SP2-8/etc/uvm/reg/uvm_reg_model.svh'.
Parsing included file '/fetools/synopsys/installed_tools/vcs/vcs/Q-2020.03-SP2-8/etc/uvm/reg/uvm_vreg.svh'.
Back to file '/fetools/synopsys/installed_tools/vcs/vcs/Q-2020.03-SP2-8/etc/uvm/reg/uvm_reg_model.svh'.
Parsing included file '/fetools/synopsys/installed_tools/vcs/vcs/Q-2020.03-SP2-8/etc/uvm/reg/uvm_mem.svh'.
Back to file '/fetools/synopsys/installed_tools/vcs/vcs/Q-2020.03-SP2-8/etc/uvm/reg/uvm_reg_model.svh'.
Parsing included file '/fetools/synopsys/installed_tools/vcs/vcs/Q-2020.03-SP2-8/etc/uvm/reg/uvm_reg_map.svh'.
Back to file '/fetools/synopsys/installed_tools/vcs/vcs/Q-2020.03-SP2-8/etc/uvm/reg/uvm_reg_model.svh'.
Parsing included file '/fetools/synopsys/installed_tools/vcs/vcs/Q-2020.03-SP2-8/etc/uvm/reg/uvm_reg_block.svh'.
Back to file '/fetools/synopsys/installed_tools/vcs/vcs/Q-2020.03-SP2-8/etc/uvm/reg/uvm_reg_model.svh'.
Parsing included file '/fetools/synopsys/installed_tools/vcs/vcs/Q-2020.03-SP2-8/etc/uvm/reg/sequences/uvm_reg_hw_reset_seq.svh'.
Back to file '/fetools/synopsys/installed_tools/vcs/vcs/Q-2020.03-SP2-8/etc/uvm/reg/uvm_reg_model.svh'.
Parsing included file '/fetools/synopsys/installed_tools/vcs/vcs/Q-2020.03-SP2-8/etc/uvm/reg/sequences/uvm_reg_bit_bash_seq.svh'.
Back to file '/fetools/synopsys/installed_tools/vcs/vcs/Q-2020.03-SP2-8/etc/uvm/reg/uvm_reg_model.svh'.
Parsing included file '/fetools/synopsys/installed_tools/vcs/vcs/Q-2020.03-SP2-8/etc/uvm/reg/sequences/uvm_mem_walk_seq.svh'.
Back to file '/fetools/synopsys/installed_tools/vcs/vcs/Q-2020.03-SP2-8/etc/uvm/reg/uvm_reg_model.svh'.
Parsing included file '/fetools/synopsys/installed_tools/vcs/vcs/Q-2020.03-SP2-8/etc/uvm/reg/sequences/uvm_mem_access_seq.svh'.
Back to file '/fetools/synopsys/installed_tools/vcs/vcs/Q-2020.03-SP2-8/etc/uvm/reg/uvm_reg_model.svh'.
Parsing included file '/fetools/synopsys/installed_tools/vcs/vcs/Q-2020.03-SP2-8/etc/uvm/reg/sequences/uvm_reg_access_seq.svh'.
Back to file '/fetools/synopsys/installed_tools/vcs/vcs/Q-2020.03-SP2-8/etc/uvm/reg/uvm_reg_model.svh'.
Parsing included file '/fetools/synopsys/installed_tools/vcs/vcs/Q-2020.03-SP2-8/etc/uvm/reg/sequences/uvm_reg_mem_shared_access_seq.svh'.
Back to file '/fetools/synopsys/installed_tools/vcs/vcs/Q-2020.03-SP2-8/etc/uvm/reg/uvm_reg_model.svh'.
Parsing included file '/fetools/synopsys/installed_tools/vcs/vcs/Q-2020.03-SP2-8/etc/uvm/reg/sequences/uvm_reg_mem_built_in_seq.svh'.
Back to file '/fetools/synopsys/installed_tools/vcs/vcs/Q-2020.03-SP2-8/etc/uvm/reg/uvm_reg_model.svh'.
Parsing included file '/fetools/synopsys/installed_tools/vcs/vcs/Q-2020.03-SP2-8/etc/uvm/reg/sequences/uvm_reg_mem_hdl_paths_seq.svh'.
Back to file '/fetools/synopsys/installed_tools/vcs/vcs/Q-2020.03-SP2-8/etc/uvm/reg/uvm_reg_model.svh'.
Parsing included file '/fetools/synopsys/installed_tools/vcs/vcs/Q-2020.03-SP2-8/etc/uvm/reg/snps_uvm_reg_bank.svh'.
Back to file '/fetools/synopsys/installed_tools/vcs/vcs/Q-2020.03-SP2-8/etc/uvm/reg/uvm_reg_model.svh'.
Back to file '/fetools/synopsys/installed_tools/vcs/vcs/Q-2020.03-SP2-8/etc/uvm/uvm_pkg.sv'.
Parsing included file '/fetools/synopsys/installed_tools/vcs/vcs/Q-2020.03-SP2-8/etc/uvm/vcs/vcs_uvm_alt.sv'.
Back to file '/fetools/synopsys/installed_tools/vcs/vcs/Q-2020.03-SP2-8/etc/uvm/uvm_pkg.sv'.
Parsing design file '/fetools/synopsys/installed_tools/vcs/vcs/Q-2020.03-SP2-8/etc/uvm/vcs/uvm_custom_install_vcs_recorder.sv'
Parsing included file '/fetools/synopsys/installed_tools/vcs/vcs/Q-2020.03-SP2-8/etc/uvm/vcs/msglog.svh'.
Back to file '/fetools/synopsys/installed_tools/vcs/vcs/Q-2020.03-SP2-8/etc/uvm/vcs/uvm_custom_install_vcs_recorder.sv'.
Parsing included file '/fetools/synopsys/installed_tools/vcs/vcs/Q-2020.03-SP2-8/etc/uvm/vcs/uvm_msglog_report_server.sv'.
Back to file '/fetools/synopsys/installed_tools/vcs/vcs/Q-2020.03-SP2-8/etc/uvm/vcs/uvm_custom_install_vcs_recorder.sv'.
Parsing included file '/fetools/synopsys/installed_tools/vcs/vcs/Q-2020.03-SP2-8/etc/uvm/vcs/uvm_vcs_recorder.svh'.
Back to file '/fetools/synopsys/installed_tools/vcs/vcs/Q-2020.03-SP2-8/etc/uvm/vcs/uvm_custom_install_vcs_recorder.sv'.
Parsing included file '/fetools/synopsys/installed_tools/vcs/vcs/Q-2020.03-SP2-8/etc/uvm/vcs/uvm_vcs_record_interface.sv'.
Back to file '/fetools/synopsys/installed_tools/vcs/vcs/Q-2020.03-SP2-8/etc/uvm/vcs/uvm_custom_install_vcs_recorder.sv'.
Parsing design file '/fetools/synopsys/installed_tools/vcs/vcs/Q-2020.03-SP2-8/etc/uvm/verdi/uvm_custom_install_verdi_recorder.sv'
Parsing included file '/fetools/synopsys/installed_tools/vcs/vcs/Q-2020.03-SP2-8/etc/uvm/uvm_macros.svh'.
Back to file '/fetools/synopsys/installed_tools/vcs/vcs/Q-2020.03-SP2-8/etc/uvm/verdi/uvm_custom_install_verdi_recorder.sv'.
Parsing included file '/fetools/synopsys/installed_tools/vcs/vcs/Q-2020.03-SP2-8/etc/uvm/verdi/uvm_verdi_recorder.svh'.
Parsing included file '/fetools/synopsys/installed_tools/vcs/vcs/Q-2020.03-SP2-8/etc/uvm/verdi/uvm_verdi_pli_base.svh'.
Back to file '/fetools/synopsys/installed_tools/vcs/vcs/Q-2020.03-SP2-8/etc/uvm/verdi/uvm_verdi_recorder.svh'.
Back to file '/fetools/synopsys/installed_tools/vcs/vcs/Q-2020.03-SP2-8/etc/uvm/verdi/uvm_custom_install_verdi_recorder.sv'.
Parsing included file '/fetools/synopsys/installed_tools/vcs/vcs/Q-2020.03-SP2-8/etc/uvm/verdi/uvm_verdi_reg_map_recording.sv'.
Back to file '/fetools/synopsys/installed_tools/vcs/vcs/Q-2020.03-SP2-8/etc/uvm/verdi/uvm_custom_install_verdi_recorder.sv'.
Parsing included file '/fetools/synopsys/installed_tools/vcs/vcs/Q-2020.03-SP2-8/etc/uvm/verdi/uvm_verdi_message_catcher.svh'.
Parsing included file '/fetools/synopsys/installed_tools/vcs/vcs/Q-2020.03-SP2-8/etc/uvm/verdi/uvm_verdi_pli_base.svh'.
Back to file '/fetools/synopsys/installed_tools/vcs/vcs/Q-2020.03-SP2-8/etc/uvm/verdi/uvm_verdi_message_catcher.svh'.
Back to file '/fetools/synopsys/installed_tools/vcs/vcs/Q-2020.03-SP2-8/etc/uvm/verdi/uvm_custom_install_verdi_recorder.sv'.
Parsing included file '/fetools/synopsys/installed_tools/vcs/vcs/Q-2020.03-SP2-8/etc/uvm/verdi/./dpi/uvm_verdi_dpi.svh'.
Back to file '/fetools/synopsys/installed_tools/vcs/vcs/Q-2020.03-SP2-8/etc/uvm/verdi/uvm_custom_install_verdi_recorder.sv'.
Parsing included file '/fetools/synopsys/installed_tools/vcs/vcs/Q-2020.03-SP2-8/etc/uvm/verdi/uvm_verdi_reg_recording.sv'.
Back to file '/fetools/synopsys/installed_tools/vcs/vcs/Q-2020.03-SP2-8/etc/uvm/verdi/uvm_custom_install_verdi_recorder.sv'.
Parsing included file '/fetools/synopsys/installed_tools/verdi/verdi/Q-2020.03-SP2-8/share/PLI/VCS/include/verdi_trans_recorder_dpi.svh'.
Back to file '/fetools/synopsys/installed_tools/vcs/vcs/Q-2020.03-SP2-8/etc/uvm/verdi/uvm_custom_install_verdi_recorder.sv'.
Parsing included file '/fetools/synopsys/installed_tools/vcs/vcs/Q-2020.03-SP2-8/etc/uvm/verdi/uvm_verdi_pli.svh'.
Back to file '/fetools/synopsys/installed_tools/vcs/vcs/Q-2020.03-SP2-8/etc/uvm/verdi/uvm_custom_install_verdi_recorder.sv'.
Parsing design file '/fetools/synopsys/installed_tools/vcs/vcs/Q-2020.03-SP2-8/etc/uvm/verdi/uvm_custom_install_verdi_recorder.sv'
Parsing design file 'top.sv'
Parsing included file 'DUT.sv'.
Back to file 'top.sv'.
Parsing included file 'package.sv'.
Parsing included file 'defines.svh'.
Back to file 'package.sv'.
Parsing included file '/fetools/synopsys/installed_tools/vcs/vcs/Q-2020.03-SP2-8/etc/uvm/uvm_macros.svh'.
Back to file 'package.sv'.
Parsing included file 'my_transaction.sv'.
Back to file 'package.sv'.
Parsing included file 'sequencer.sv'.
Back to file 'package.sv'.
Parsing included file 'sequences.sv'.
Back to file 'package.sv'.
Parsing included file 'driver.sv'.
Back to file 'package.sv'.
Parsing included file 'monitor.sv'.
Back to file 'package.sv'.
Parsing included file 'agent.sv'.
Back to file 'package.sv'.
Parsing included file 'subscriber.sv'.
Back to file 'package.sv'.
Parsing included file 'scoreboard.sv'.
Back to file 'package.sv'.
Parsing included file 'environment.sv'.
Back to file 'package.sv'.
Parsing included file 'test.sv'.
Back to file 'package.sv'.
Back to file 'top.sv'.
Parsing included file 'interface.sv'.
Back to file 'top.sv'.
Top Level Modules:
       uvm_custom_install_recording
       uvm_custom_install_verdi_recording
       top
TimeScale is 1 ns / 1 ps
Starting vcs inline pass...

10 modules and 0 UDP read.
recompiling package vcs_paramclassrepository
recompiling package pkg
Both modules done.
	However, due to incremental compilation, only 2 modules need to be compiled. 
rm -f _cuarc*.so _csrc*.so pre_vcsobj_*.so share_vcsobj_*.so
ld -shared  -Bsymbolic   -o .//../simv.daidir//_cuarc0.so objs/amcQw_d.o 
rm -f _cuarc0.so
if [ -x ../simv ]; then chmod a-x ../simv; fi
g++  -o ../simv      -rdynamic  -Wl,-rpath='$ORIGIN'/simv.daidir -Wl,-rpath=./simv.daidir \
-Wl,-rpath=/fetools/synopsys/installed_tools/vcs/vcs/Q-2020.03-SP2-8/linux64/lib \
-L/fetools/synopsys/installed_tools/vcs/vcs/Q-2020.03-SP2-8/linux64/lib  -Wl,-rpath-link=./ \
/usr/lib64/libnuma.so.1 uvm_dpi.o uvm_verdi_dpi.o     _255851_archive_1.so _prev_archive_1.so \
_cuarc0.so  SIM_l.o      rmapats_mop.o rmapats.o rmar.o rmar_nd.o  rmar_llvm_0_1.o \
rmar_llvm_0_0.o          -lvirsim -lerrorinf -lsnpsmalloc -lvfs    -lvcsnew -lsimprofile \
-luclinative /fetools/synopsys/installed_tools/vcs/vcs/Q-2020.03-SP2-8/linux64/lib/vcs_tls.o \
-Wl,-whole-archive  -lvcsucli    -Wl,-no-whole-archive       ./../simv.daidir/vc_hdrs.o \
_vcs_pli_stub_.o   /fetools/synopsys/installed_tools/vcs/vcs/Q-2020.03-SP2-8/linux64/lib/vcs_save_restore_new.o \
/fetools/synopsys/installed_tools/verdi/verdi/Q-2020.03-SP2-8/share/PLI/VCS/LINUX64/pli.a \
-ldl  -lc -lm -lpthread -ldl 
../simv up to date
Command: /fetools/work_area/frontend/Batch_11/srivatsa/UVM/project/AXI4_Lite/try/./simv +v2k -a fell.log
Chronologic VCS simulator copyright 1991-2020
Contains Synopsys proprietary information.
Compiler version Q-2020.03-SP2-8_Full64; Runtime version Q-2020.03-SP2-8_Full64;  Sep  9 23:21 2026
----------------------------------------------------------------
UVM-1.1d.Synopsys
(C) 2007-2013 Mentor Graphics Corporation
(C) 2007-2013 Cadence Design Systems, Inc.
(C) 2006-2013 Synopsys, Inc.
(C) 2011-2013 Cypress Semiconductor Corp.
----------------------------------------------------------------

  ***********       IMPORTANT RELEASE NOTES         ************

  You are using a version of the UVM library that has been compiled
  with `UVM_NO_DEPRECATED undefined.
  See http://www.eda.org/svdb/view.php?id=3313 for more details.

  You are using a version of the UVM library that has been compiled
  with `UVM_OBJECT_MUST_HAVE_CONSTRUCTOR undefined.
  See http://www.eda.org/svdb/view.php?id=3770 for more details.

      (Specify +UVM_NO_RELNOTES to turn off this notice)

UVM_INFO @ 0: reporter [RNTST] Running test test...
UVM_INFO @ 0: reporter [UVMTOP] UVM testbench topology:
--------------------------------------------------------------
Name                       Type                    Size  Value
--------------------------------------------------------------
uvm_test_top               test                    -     @461 
  env                      environment             -     @474 
    act                    agent                   -     @482 
      drv                  driver                  -     @560 
        rsp_port           uvm_analysis_port       -     @577 
        seq_item_port      uvm_seq_item_pull_port  -     @568 
      mon                  monitor                 -     @542 
        ap                 uvm_analysis_port       -     @550 
      sqr                  uvm_sequencer           -     @586 
        rsp_export         uvm_analysis_export     -     @594 
        seq_item_export    uvm_seq_item_pull_imp   -     @700 
        arbitration_queue  array                   0     -    
        lock_queue         array                   0     -    
        num_last_reqs      integral                32    'd1  
        num_last_rsps      integral                32    'd1  
    pass                   agent                   -     @490 
      mon                  monitor                 -     @717 
        ap                 uvm_analysis_port       -     @725 
    sc                     scoreboard              -     @498 
      in_mon               uvm_analysis_imp        -     @506 
      out_mon              uvm_analysis_imp_out    -     @515 
    sub                    subscriber              -     @524 
      analysis_imp         uvm_analysis_imp        -     @532 
      out_mon              uvm_analysis_imp_out    -     @736 
--------------------------------------------------------------

UVM_INFO sequences.sv(25) @ 0: uvm_test_top.env.act.sqr@@seq [SEQ] AWADDR=2565871470, AWPROT=0, AWVALID=0, WDATA=2944509091, WSTRB=101, WVALID=0, ARADDR=18, ARPROT=0, ARVALID=0, RREADY=1
UVM_INFO driver.sv(39) @ 5000: uvm_test_top.env.act.drv [DRV] AWADDR=2565871470, AWPROT=0, AWVALID=0
UVM_INFO driver.sv(46) @ 5000: uvm_test_top.env.act.drv [DRV] WDATA=2944509091, WSTRB=101, WVALID=0
UVM_INFO driver.sv(53) @ 5000: uvm_test_top.env.act.drv [DRV] ARADDR=18, ARPROT=0, ARVALID=0
UVM_INFO driver.sv(60) @ 5000: uvm_test_top.env.act.drv [DRV] BREADY=0
UVM_INFO driver.sv(65) @ 5000: uvm_test_top.env.act.drv [DRV] RREADY=1
UVM_INFO sequences.sv(192) @ 5000: uvm_test_top.env.act.sqr@@seq [SEQ] AWADDR=2565871470, AWPROT=0, AWVALID=0, WDATA=2944509091, WSTRB=101, WVALID=0, ARADDR=18, ARPROT=0, ARVALID=0, RREADY=1
UVM_INFO monitor.sv(55) @ 15000: uvm_test_top.env.act.mon [uvm_test_top.env.act.mon] rst=0, AWADDR=2565871470, AWPROT=0, AWVALID=0, WDATA=2944509091, WSTRB=5, WVALID=0, BREADY=0, ARADDR=18, ARPROT=0, ARVALID=0, RREADY=1, AWREADY=0, WREADY=0, BRESP=0, BVALID=0, ARREADY=0, ARPROT=0, RDATA=0, RRESP=0, RVALID=0
UVM_INFO monitor.sv(55) @ 15000: uvm_test_top.env.pass.mon [uvm_test_top.env.pass.mon] rst=0, AWADDR=2565871470, AWPROT=0, AWVALID=0, WDATA=2944509091, WSTRB=5, WVALID=0, BREADY=0, ARADDR=18, ARPROT=0, ARVALID=0, RREADY=1, AWREADY=0, WREADY=0, BRESP=0, BVALID=0, ARREADY=0, ARPROT=0, RDATA=0, RRESP=0, RVALID=0
UVM_INFO driver.sv(39) @ 15000: uvm_test_top.env.act.drv [DRV] AWADDR=2565871470, AWPROT=0, AWVALID=0
UVM_INFO driver.sv(46) @ 15000: uvm_test_top.env.act.drv [DRV] WDATA=2944509091, WSTRB=101, WVALID=0
UVM_INFO driver.sv(53) @ 15000: uvm_test_top.env.act.drv [DRV] ARADDR=18, ARPROT=0, ARVALID=0
UVM_INFO driver.sv(60) @ 15000: uvm_test_top.env.act.drv [DRV] BREADY=1
UVM_INFO driver.sv(65) @ 15000: uvm_test_top.env.act.drv [DRV] RREADY=1
UVM_INFO sequences.sv(192) @ 15000: uvm_test_top.env.act.sqr@@seq [SEQ] AWADDR=2565871470, AWPROT=0, AWVALID=1, WDATA=2944509091, WSTRB=101, WVALID=0, ARADDR=18, ARPROT=0, ARVALID=1, RREADY=0
UVM_INFO monitor.sv(55) @ 25000: uvm_test_top.env.act.mon [uvm_test_top.env.act.mon] rst=0, AWADDR=2565871470, AWPROT=0, AWVALID=0, WDATA=2944509091, WSTRB=5, WVALID=0, BREADY=1, ARADDR=18, ARPROT=0, ARVALID=0, RREADY=1, AWREADY=0, WREADY=0, BRESP=0, BVALID=0, ARREADY=0, ARPROT=0, RDATA=0, RRESP=0, RVALID=0
UVM_INFO monitor.sv(55) @ 25000: uvm_test_top.env.pass.mon [uvm_test_top.env.pass.mon] rst=0, AWADDR=2565871470, AWPROT=0, AWVALID=0, WDATA=2944509091, WSTRB=5, WVALID=0, BREADY=1, ARADDR=18, ARPROT=0, ARVALID=0, RREADY=1, AWREADY=0, WREADY=0, BRESP=0, BVALID=0, ARREADY=0, ARPROT=0, RDATA=0, RRESP=0, RVALID=0
UVM_INFO scoreboard.sv(53) @ 25000: uvm_test_top.env.sc [SCOREBOARD] DUT: BRESP=0, RDATA=0, RRESP=0
REF: BRESP=0, RDATA=0, RRESP=0


UVM_INFO driver.sv(39) @ 25000: uvm_test_top.env.act.drv [DRV] AWADDR=2565871470, AWPROT=0, AWVALID=1
UVM_INFO driver.sv(46) @ 25000: uvm_test_top.env.act.drv [DRV] WDATA=2944509091, WSTRB=101, WVALID=0
UVM_INFO driver.sv(53) @ 25000: uvm_test_top.env.act.drv [DRV] ARADDR=18, ARPROT=0, ARVALID=1
UVM_INFO driver.sv(60) @ 25000: uvm_test_top.env.act.drv [DRV] BREADY=0
UVM_INFO driver.sv(65) @ 25000: uvm_test_top.env.act.drv [DRV] RREADY=0
UVM_INFO sequences.sv(172) @ 25000: uvm_test_top.env.act.sqr@@seq [SEQ] AWADDR=2565871470, AWPROT=0, AWVALID=1, WDATA=2944509091, WSTRB=101, WVALID=0, ARADDR=18, ARPROT=0, ARVALID=1, RREADY=0
UVM_INFO monitor.sv(55) @ 35000: uvm_test_top.env.act.mon [uvm_test_top.env.act.mon] rst=1, AWADDR=2565871470, AWPROT=0, AWVALID=1, WDATA=2944509091, WSTRB=5, WVALID=0, BREADY=0, ARADDR=18, ARPROT=0, ARVALID=1, RREADY=0, AWREADY=0, WREADY=0, BRESP=0, BVALID=0, ARREADY=0, ARPROT=0, RDATA=0, RRESP=0, RVALID=0
UVM_INFO monitor.sv(55) @ 35000: uvm_test_top.env.pass.mon [uvm_test_top.env.pass.mon] rst=1, AWADDR=2565871470, AWPROT=0, AWVALID=1, WDATA=2944509091, WSTRB=5, WVALID=0, BREADY=0, ARADDR=18, ARPROT=0, ARVALID=1, RREADY=0, AWREADY=0, WREADY=0, BRESP=0, BVALID=0, ARREADY=0, ARPROT=0, RDATA=0, RRESP=0, RVALID=0
UVM_INFO scoreboard.sv(53) @ 35000: uvm_test_top.env.sc [SCOREBOARD] DUT: BRESP=0, RDATA=0, RRESP=0
REF: BRESP=0, RDATA=0, RRESP=0


UVM_INFO driver.sv(39) @ 35000: uvm_test_top.env.act.drv [DRV] AWADDR=2565871470, AWPROT=0, AWVALID=1
UVM_INFO driver.sv(46) @ 35000: uvm_test_top.env.act.drv [DRV] WDATA=2944509091, WSTRB=101, WVALID=0
UVM_INFO driver.sv(53) @ 35000: uvm_test_top.env.act.drv [DRV] ARADDR=18, ARPROT=0, ARVALID=1
UVM_INFO driver.sv(60) @ 35000: uvm_test_top.env.act.drv [DRV] BREADY=1
UVM_INFO driver.sv(65) @ 35000: uvm_test_top.env.act.drv [DRV] RREADY=0
UVM_INFO sequences.sv(172) @ 35000: uvm_test_top.env.act.sqr@@seq [SEQ] AWADDR=2565871470, AWPROT=0, AWVALID=1, WDATA=2944509091, WSTRB=101, WVALID=0, ARADDR=18, ARPROT=0, ARVALID=1, RREADY=1
UVM_INFO monitor.sv(55) @ 45000: uvm_test_top.env.act.mon [uvm_test_top.env.act.mon] rst=1, AWADDR=2565871470, AWPROT=0, AWVALID=1, WDATA=2944509091, WSTRB=5, WVALID=0, BREADY=1, ARADDR=18, ARPROT=0, ARVALID=1, RREADY=0, AWREADY=1, WREADY=1, BRESP=0, BVALID=0, ARREADY=1, ARPROT=0, RDATA=0, RRESP=0, RVALID=0
UVM_INFO monitor.sv(55) @ 45000: uvm_test_top.env.pass.mon [uvm_test_top.env.pass.mon] rst=1, AWADDR=2565871470, AWPROT=0, AWVALID=1, WDATA=2944509091, WSTRB=5, WVALID=0, BREADY=1, ARADDR=18, ARPROT=0, ARVALID=1, RREADY=0, AWREADY=1, WREADY=1, BRESP=0, BVALID=0, ARREADY=1, ARPROT=0, RDATA=0, RRESP=0, RVALID=0
UVM_INFO scoreboard.sv(53) @ 45000: uvm_test_top.env.sc [SCOREBOARD] DUT: BRESP=0, RDATA=0, RRESP=0
REF: BRESP=0, RDATA=0, RRESP=0


UVM_INFO driver.sv(39) @ 45000: uvm_test_top.env.act.drv [DRV] AWADDR=2565871470, AWPROT=0, AWVALID=1
UVM_INFO driver.sv(46) @ 45000: uvm_test_top.env.act.drv [DRV] WDATA=2944509091, WSTRB=101, WVALID=0
UVM_INFO driver.sv(53) @ 45000: uvm_test_top.env.act.drv [DRV] ARADDR=18, ARPROT=0, ARVALID=1
UVM_INFO driver.sv(60) @ 45000: uvm_test_top.env.act.drv [DRV] BREADY=0
UVM_INFO driver.sv(65) @ 45000: uvm_test_top.env.act.drv [DRV] RREADY=1
UVM_INFO sequences.sv(72) @ 45000: uvm_test_top.env.act.sqr@@seq [SEQ] AWADDR=11, AWPROT=0, AWVALID=0, WDATA=2944509091, WSTRB=101, WVALID=0, ARADDR=1736908971, ARPROT=0, ARVALID=0, RREADY=0
UVM_INFO monitor.sv(55) @ 55000: uvm_test_top.env.act.mon [uvm_test_top.env.act.mon] rst=1, AWADDR=2565871470, AWPROT=0, AWVALID=1, WDATA=2944509091, WSTRB=5, WVALID=0, BREADY=0, ARADDR=18, ARPROT=0, ARVALID=1, RREADY=1, AWREADY=0, WREADY=1, BRESP=0, BVALID=0, ARREADY=0, ARPROT=0, RDATA=0, RRESP=2, RVALID=1
UVM_INFO monitor.sv(55) @ 55000: uvm_test_top.env.pass.mon [uvm_test_top.env.pass.mon] rst=1, AWADDR=2565871470, AWPROT=0, AWVALID=1, WDATA=2944509091, WSTRB=5, WVALID=0, BREADY=0, ARADDR=18, ARPROT=0, ARVALID=1, RREADY=1, AWREADY=0, WREADY=1, BRESP=0, BVALID=0, ARREADY=0, ARPROT=0, RDATA=0, RRESP=2, RVALID=1
UVM_INFO scoreboard.sv(53) @ 55000: uvm_test_top.env.sc [SCOREBOARD] DUT: BRESP=0, RDATA=0, RRESP=2
REF: BRESP=0, RDATA=0, RRESP=2


UVM_INFO driver.sv(39) @ 55000: uvm_test_top.env.act.drv [DRV] AWADDR=11, AWPROT=0, AWVALID=0
UVM_INFO driver.sv(46) @ 55000: uvm_test_top.env.act.drv [DRV] WDATA=2944509091, WSTRB=101, WVALID=0
UVM_INFO driver.sv(53) @ 55000: uvm_test_top.env.act.drv [DRV] ARADDR=1736908971, ARPROT=0, ARVALID=0
UVM_INFO driver.sv(60) @ 55000: uvm_test_top.env.act.drv [DRV] BREADY=0
UVM_INFO driver.sv(65) @ 55000: uvm_test_top.env.act.drv [DRV] RREADY=0
UVM_INFO sequences.sv(106) @ 55000: uvm_test_top.env.act.sqr@@seq [SEQ] AWADDR=1892618808, AWPROT=0, AWVALID=0, WDATA=2944509091, WSTRB=101, WVALID=0, ARADDR=1736908971, ARPROT=0, ARVALID=0, RREADY=1
UVM_INFO monitor.sv(55) @ 65000: uvm_test_top.env.act.mon [uvm_test_top.env.act.mon] rst=1, AWADDR=11, AWPROT=0, AWVALID=0, WDATA=2944509091, WSTRB=5, WVALID=0, BREADY=0, ARADDR=1736908971, ARPROT=0, ARVALID=0, RREADY=0, AWREADY=0, WREADY=1, BRESP=0, BVALID=0, ARREADY=0, ARPROT=0, RDATA=0, RRESP=2, RVALID=0
UVM_INFO monitor.sv(55) @ 65000: uvm_test_top.env.pass.mon [uvm_test_top.env.pass.mon] rst=1, AWADDR=11, AWPROT=0, AWVALID=0, WDATA=2944509091, WSTRB=5, WVALID=0, BREADY=0, ARADDR=1736908971, ARPROT=0, ARVALID=0, RREADY=0, AWREADY=0, WREADY=1, BRESP=0, BVALID=0, ARREADY=0, ARPROT=0, RDATA=0, RRESP=2, RVALID=0
UVM_INFO scoreboard.sv(53) @ 65000: uvm_test_top.env.sc [SCOREBOARD] DUT: BRESP=0, RDATA=0, RRESP=2
REF: BRESP=0, RDATA=0, RRESP=2


UVM_INFO driver.sv(39) @ 65000: uvm_test_top.env.act.drv [DRV] AWADDR=1892618808, AWPROT=0, AWVALID=0
UVM_INFO driver.sv(46) @ 65000: uvm_test_top.env.act.drv [DRV] WDATA=2944509091, WSTRB=101, WVALID=0
UVM_INFO driver.sv(53) @ 65000: uvm_test_top.env.act.drv [DRV] ARADDR=1736908971, ARPROT=0, ARVALID=0
UVM_INFO driver.sv(60) @ 65000: uvm_test_top.env.act.drv [DRV] BREADY=0
UVM_INFO driver.sv(65) @ 65000: uvm_test_top.env.act.drv [DRV] RREADY=1
UVM_INFO sequences.sv(106) @ 65000: uvm_test_top.env.act.sqr@@seq [SEQ] AWADDR=4135337886, AWPROT=0, AWVALID=1, WDATA=2944509091, WSTRB=101, WVALID=0, ARADDR=1736908971, ARPROT=0, ARVALID=1, RREADY=0
UVM_INFO monitor.sv(55) @ 75000: uvm_test_top.env.act.mon [uvm_test_top.env.act.mon] rst=1, AWADDR=1892618808, AWPROT=0, AWVALID=0, WDATA=2944509091, WSTRB=5, WVALID=0, BREADY=0, ARADDR=1736908971, ARPROT=0, ARVALID=0, RREADY=1, AWREADY=0, WREADY=1, BRESP=0, BVALID=0, ARREADY=1, ARPROT=0, RDATA=0, RRESP=2, RVALID=0
UVM_INFO monitor.sv(55) @ 75000: uvm_test_top.env.pass.mon [uvm_test_top.env.pass.mon] rst=1, AWADDR=1892618808, AWPROT=0, AWVALID=0, WDATA=2944509091, WSTRB=5, WVALID=0, BREADY=0, ARADDR=1736908971, ARPROT=0, ARVALID=0, RREADY=1, AWREADY=0, WREADY=1, BRESP=0, BVALID=0, ARREADY=1, ARPROT=0, RDATA=0, RRESP=2, RVALID=0
UVM_INFO scoreboard.sv(53) @ 75000: uvm_test_top.env.sc [SCOREBOARD] DUT: BRESP=0, RDATA=0, RRESP=2
REF: BRESP=0, RDATA=0, RRESP=2


UVM_INFO driver.sv(39) @ 75000: uvm_test_top.env.act.drv [DRV] AWADDR=4135337886, AWPROT=0, AWVALID=1
UVM_INFO driver.sv(46) @ 75000: uvm_test_top.env.act.drv [DRV] WDATA=2944509091, WSTRB=101, WVALID=0
UVM_INFO driver.sv(53) @ 75000: uvm_test_top.env.act.drv [DRV] ARADDR=1736908971, ARPROT=0, ARVALID=1
UVM_INFO driver.sv(60) @ 75000: uvm_test_top.env.act.drv [DRV] BREADY=1
UVM_INFO driver.sv(65) @ 75000: uvm_test_top.env.act.drv [DRV] RREADY=0
UVM_INFO sequences.sv(72) @ 75000: uvm_test_top.env.act.sqr@@seq [SEQ] AWADDR=2110187304, AWPROT=0, AWVALID=0, WDATA=2944509091, WSTRB=101, WVALID=1, ARADDR=48, ARPROT=0, ARVALID=0, RREADY=1
UVM_INFO monitor.sv(55) @ 85000: uvm_test_top.env.act.mon [uvm_test_top.env.act.mon] rst=1, AWADDR=4135337886, AWPROT=0, AWVALID=1, WDATA=2944509091, WSTRB=5, WVALID=0, BREADY=1, ARADDR=1736908971, ARPROT=0, ARVALID=1, RREADY=0, AWREADY=0, WREADY=1, BRESP=0, BVALID=0, ARREADY=1, ARPROT=0, RDATA=0, RRESP=2, RVALID=0
UVM_INFO monitor.sv(55) @ 85000: uvm_test_top.env.pass.mon [uvm_test_top.env.pass.mon] rst=1, AWADDR=4135337886, AWPROT=0, AWVALID=1, WDATA=2944509091, WSTRB=5, WVALID=0, BREADY=1, ARADDR=1736908971, ARPROT=0, ARVALID=1, RREADY=0, AWREADY=0, WREADY=1, BRESP=0, BVALID=0, ARREADY=1, ARPROT=0, RDATA=0, RRESP=2, RVALID=0
UVM_INFO scoreboard.sv(53) @ 85000: uvm_test_top.env.sc [SCOREBOARD] DUT: BRESP=0, RDATA=0, RRESP=2
REF: BRESP=0, RDATA=0, RRESP=2


UVM_INFO driver.sv(39) @ 85000: uvm_test_top.env.act.drv [DRV] AWADDR=2110187304, AWPROT=0, AWVALID=0
UVM_INFO driver.sv(46) @ 85000: uvm_test_top.env.act.drv [DRV] WDATA=2944509091, WSTRB=101, WVALID=1
UVM_INFO driver.sv(53) @ 85000: uvm_test_top.env.act.drv [DRV] ARADDR=48, ARPROT=0, ARVALID=0
UVM_INFO driver.sv(60) @ 85000: uvm_test_top.env.act.drv [DRV] BREADY=1
UVM_INFO driver.sv(65) @ 85000: uvm_test_top.env.act.drv [DRV] RREADY=1
UVM_INFO sequences.sv(60) @ 85000: uvm_test_top.env.act.sqr@@seq [SEQ] AWADDR=29, AWPROT=0, AWVALID=0, WDATA=950807658, WSTRB=1, WVALID=1, ARADDR=48, ARPROT=0, ARVALID=0, RREADY=1
UVM_INFO monitor.sv(55) @ 95000: uvm_test_top.env.act.mon [uvm_test_top.env.act.mon] rst=1, AWADDR=2110187304, AWPROT=0, AWVALID=0, WDATA=2944509091, WSTRB=5, WVALID=1, BREADY=1, ARADDR=48, ARPROT=0, ARVALID=0, RREADY=1, AWREADY=0, WREADY=1, BRESP=0, BVALID=0, ARREADY=0, ARPROT=0, RDATA=0, RRESP=3, RVALID=1
UVM_INFO monitor.sv(55) @ 95000: uvm_test_top.env.pass.mon [uvm_test_top.env.pass.mon] rst=1, AWADDR=2110187304, AWPROT=0, AWVALID=0, WDATA=2944509091, WSTRB=5, WVALID=1, BREADY=1, ARADDR=48, ARPROT=0, ARVALID=0, RREADY=1, AWREADY=0, WREADY=1, BRESP=0, BVALID=0, ARREADY=0, ARPROT=0, RDATA=0, RRESP=3, RVALID=1
UVM_INFO scoreboard.sv(53) @ 95000: uvm_test_top.env.sc [SCOREBOARD] DUT: BRESP=0, RDATA=0, RRESP=3
REF: BRESP=0, RDATA=0, RRESP=3


UVM_INFO driver.sv(39) @ 95000: uvm_test_top.env.act.drv [DRV] AWADDR=29, AWPROT=0, AWVALID=0
UVM_INFO driver.sv(46) @ 95000: uvm_test_top.env.act.drv [DRV] WDATA=950807658, WSTRB=1, WVALID=1
UVM_INFO driver.sv(53) @ 95000: uvm_test_top.env.act.drv [DRV] ARADDR=48, ARPROT=0, ARVALID=0
UVM_INFO driver.sv(60) @ 95000: uvm_test_top.env.act.drv [DRV] BREADY=0
UVM_INFO driver.sv(65) @ 95000: uvm_test_top.env.act.drv [DRV] RREADY=1
UVM_INFO sequences.sv(60) @ 95000: uvm_test_top.env.act.sqr@@seq [SEQ] AWADDR=2706126899, AWPROT=0, AWVALID=1, WDATA=3174126618, WSTRB=100, WVALID=1, ARADDR=48, ARPROT=0, ARVALID=0, RREADY=0
UVM_INFO monitor.sv(55) @ 105000: uvm_test_top.env.act.mon [uvm_test_top.env.act.mon] rst=1, AWADDR=29, AWPROT=0, AWVALID=0, WDATA=950807658, WSTRB=1, WVALID=1, BREADY=0, ARADDR=48, ARPROT=0, ARVALID=0, RREADY=1, AWREADY=0, WREADY=0, BRESP=0, BVALID=0, ARREADY=0, ARPROT=0, RDATA=0, RRESP=3, RVALID=0
UVM_INFO monitor.sv(55) @ 105000: uvm_test_top.env.pass.mon [uvm_test_top.env.pass.mon] rst=1, AWADDR=29, AWPROT=0, AWVALID=0, WDATA=950807658, WSTRB=1, WVALID=1, BREADY=0, ARADDR=48, ARPROT=0, ARVALID=0, RREADY=1, AWREADY=0, WREADY=0, BRESP=0, BVALID=0, ARREADY=0, ARPROT=0, RDATA=0, RRESP=3, RVALID=0
UVM_INFO scoreboard.sv(53) @ 105000: uvm_test_top.env.sc [SCOREBOARD] DUT: BRESP=0, RDATA=0, RRESP=3
REF: BRESP=0, RDATA=0, RRESP=3


UVM_INFO driver.sv(39) @ 105000: uvm_test_top.env.act.drv [DRV] AWADDR=2706126899, AWPROT=0, AWVALID=1
UVM_INFO driver.sv(46) @ 105000: uvm_test_top.env.act.drv [DRV] WDATA=3174126618, WSTRB=100, WVALID=1
UVM_INFO driver.sv(53) @ 105000: uvm_test_top.env.act.drv [DRV] ARADDR=48, ARPROT=0, ARVALID=0
UVM_INFO driver.sv(60) @ 105000: uvm_test_top.env.act.drv [DRV] BREADY=1
UVM_INFO driver.sv(65) @ 105000: uvm_test_top.env.act.drv [DRV] RREADY=0
UVM_INFO sequences.sv(60) @ 105000: uvm_test_top.env.act.sqr@@seq [SEQ] AWADDR=60, AWPROT=0, AWVALID=1, WDATA=3851050057, WSTRB=111, WVALID=0, ARADDR=48, ARPROT=0, ARVALID=0, RREADY=0
UVM_INFO monitor.sv(55) @ 115000: uvm_test_top.env.act.mon [uvm_test_top.env.act.mon] rst=1, AWADDR=2706126899, AWPROT=0, AWVALID=1, WDATA=3174126618, WSTRB=4, WVALID=1, BREADY=1, ARADDR=48, ARPROT=0, ARVALID=0, RREADY=0, AWREADY=0, WREADY=0, BRESP=2, BVALID=1, ARREADY=1, ARPROT=0, RDATA=0, RRESP=3, RVALID=0
UVM_INFO monitor.sv(55) @ 115000: uvm_test_top.env.pass.mon [uvm_test_top.env.pass.mon] rst=1, AWADDR=2706126899, AWPROT=0, AWVALID=1, WDATA=3174126618, WSTRB=4, WVALID=1, BREADY=1, ARADDR=48, ARPROT=0, ARVALID=0, RREADY=0, AWREADY=0, WREADY=0, BRESP=2, BVALID=1, ARREADY=1, ARPROT=0, RDATA=0, RRESP=3, RVALID=0
UVM_INFO @ 115000: reporter [MISCMP] Miscompare for tr.BRESP: lhs = 'h3 : rhs = 'h2
UVM_INFO @ 115000: reporter [MISCMP] 1 Miscompare(s) for object tr@949 vs. tr@929
UVM_INFO scoreboard.sv(56) @ 115000: uvm_test_top.env.sc [SCOREBOARD] DUT: BRESP=2, RDATA=0, RRESP=3
REF: BRESP=3, RDATA=0, RRESP=3
_______________________________________________________________________________________________________________________
_
UVM_INFO driver.sv(39) @ 115000: uvm_test_top.env.act.drv [DRV] AWADDR=60, AWPROT=0, AWVALID=1
UVM_INFO driver.sv(46) @ 115000: uvm_test_top.env.act.drv [DRV] WDATA=3851050057, WSTRB=111, WVALID=0
UVM_INFO driver.sv(53) @ 115000: uvm_test_top.env.act.drv [DRV] ARADDR=48, ARPROT=0, ARVALID=0
UVM_INFO driver.sv(60) @ 115000: uvm_test_top.env.act.drv [DRV] BREADY=1
UVM_INFO driver.sv(65) @ 115000: uvm_test_top.env.act.drv [DRV] RREADY=0
UVM_INFO sequences.sv(60) @ 115000: uvm_test_top.env.act.sqr@@seq [SEQ] AWADDR=17, AWPROT=0, AWVALID=0, WDATA=791741570, WSTRB=1111, WVALID=1, ARADDR=48, ARPROT=0, ARVALID=1, RREADY=1
UVM_INFO monitor.sv(55) @ 125000: uvm_test_top.env.act.mon [uvm_test_top.env.act.mon] rst=1, AWADDR=60, AWPROT=0, AWVALID=1, WDATA=3851050057, WSTRB=7, WVALID=0, BREADY=1, ARADDR=48, ARPROT=0, ARVALID=0, RREADY=0, AWREADY=0, WREADY=0, BRESP=2, BVALID=0, ARREADY=1, ARPROT=0, RDATA=0, RRESP=3, RVALID=0
UVM_INFO monitor.sv(55) @ 125000: uvm_test_top.env.pass.mon [uvm_test_top.env.pass.mon] rst=1, AWADDR=60, AWPROT=0, AWVALID=1, WDATA=3851050057, WSTRB=7, WVALID=0, BREADY=1, ARADDR=48, ARPROT=0, ARVALID=0, RREADY=0, AWREADY=0, WREADY=0, BRESP=2, BVALID=0, ARREADY=1, ARPROT=0, RDATA=0, RRESP=3, RVALID=0
UVM_INFO @ 125000: reporter [MISCMP] Miscompare for tr.BRESP: lhs = 'h3 : rhs = 'h2
UVM_INFO @ 125000: reporter [MISCMP] 1 Miscompare(s) for object tr@965 vs. tr@945
UVM_INFO scoreboard.sv(56) @ 125000: uvm_test_top.env.sc [SCOREBOARD] DUT: BRESP=2, RDATA=0, RRESP=3
REF: BRESP=3, RDATA=0, RRESP=3
_______________________________________________________________________________________________________________________
_
UVM_INFO driver.sv(39) @ 125000: uvm_test_top.env.act.drv [DRV] AWADDR=17, AWPROT=0, AWVALID=0
UVM_INFO driver.sv(46) @ 125000: uvm_test_top.env.act.drv [DRV] WDATA=791741570, WSTRB=1111, WVALID=1
UVM_INFO driver.sv(53) @ 125000: uvm_test_top.env.act.drv [DRV] ARADDR=48, ARPROT=0, ARVALID=1
UVM_INFO driver.sv(60) @ 125000: uvm_test_top.env.act.drv [DRV] BREADY=1
UVM_INFO driver.sv(65) @ 125000: uvm_test_top.env.act.drv [DRV] RREADY=1
UVM_INFO sequences.sv(49) @ 125000: uvm_test_top.env.act.sqr@@seq [SEQ] AWADDR=621214890, AWPROT=0, AWVALID=0, WDATA=3799527883, WSTRB=110, WVALID=1, ARADDR=3243197708, ARPROT=0, ARVALID=1, RREADY=0
UVM_INFO monitor.sv(55) @ 135000: uvm_test_top.env.act.mon [uvm_test_top.env.act.mon] rst=1, AWADDR=17, AWPROT=0, AWVALID=0, WDATA=791741570, WSTRB=15, WVALID=1, BREADY=1, ARADDR=48, ARPROT=0, ARVALID=1, RREADY=1, AWREADY=1, WREADY=1, BRESP=2, BVALID=0, ARREADY=1, ARPROT=0, RDATA=0, RRESP=3, RVALID=0
UVM_INFO monitor.sv(55) @ 135000: uvm_test_top.env.pass.mon [uvm_test_top.env.pass.mon] rst=1, AWADDR=17, AWPROT=0, AWVALID=0, WDATA=791741570, WSTRB=15, WVALID=1, BREADY=1, ARADDR=48, ARPROT=0, ARVALID=1, RREADY=1, AWREADY=1, WREADY=1, BRESP=2, BVALID=0, ARREADY=1, ARPROT=0, RDATA=0, RRESP=3, RVALID=0
UVM_INFO @ 135000: reporter [MISCMP] Miscompare for tr.BRESP: lhs = 'h3 : rhs = 'h2
UVM_INFO @ 135000: reporter [MISCMP] 1 Miscompare(s) for object tr@981 vs. tr@961
UVM_INFO scoreboard.sv(56) @ 135000: uvm_test_top.env.sc [SCOREBOARD] DUT: BRESP=2, RDATA=0, RRESP=3
REF: BRESP=3, RDATA=0, RRESP=3
_______________________________________________________________________________________________________________________
_
UVM_INFO driver.sv(39) @ 135000: uvm_test_top.env.act.drv [DRV] AWADDR=621214890, AWPROT=0, AWVALID=0
UVM_INFO driver.sv(46) @ 135000: uvm_test_top.env.act.drv [DRV] WDATA=3799527883, WSTRB=110, WVALID=1
UVM_INFO driver.sv(53) @ 135000: uvm_test_top.env.act.drv [DRV] ARADDR=3243197708, ARPROT=0, ARVALID=1
UVM_INFO driver.sv(60) @ 135000: uvm_test_top.env.act.drv [DRV] BREADY=0
UVM_INFO driver.sv(65) @ 135000: uvm_test_top.env.act.drv [DRV] RREADY=0
UVM_INFO sequences.sv(49) @ 135000: uvm_test_top.env.act.sqr@@seq [SEQ] AWADDR=36, AWPROT=0, AWVALID=1, WDATA=2733272882, WSTRB=111, WVALID=1, ARADDR=2782573284, ARPROT=0, ARVALID=0, RREADY=0
UVM_INFO monitor.sv(55) @ 145000: uvm_test_top.env.act.mon [uvm_test_top.env.act.mon] rst=1, AWADDR=621214890, AWPROT=0, AWVALID=0, WDATA=3799527883, WSTRB=6, WVALID=1, BREADY=0, ARADDR=3243197708, ARPROT=0, ARVALID=1, RREADY=0, AWREADY=1, WREADY=0, BRESP=2, BVALID=0, ARREADY=0, ARPROT=0, RDATA=0, RRESP=0, RVALID=1
UVM_INFO monitor.sv(55) @ 145000: uvm_test_top.env.pass.mon [uvm_test_top.env.pass.mon] rst=1, AWADDR=621214890, AWPROT=0, AWVALID=0, WDATA=3799527883, WSTRB=6, WVALID=1, BREADY=0, ARADDR=3243197708, ARPROT=0, ARVALID=1, RREADY=0, AWREADY=1, WREADY=0, BRESP=2, BVALID=0, ARREADY=0, ARPROT=0, RDATA=0, RRESP=0, RVALID=1
UVM_INFO @ 145000: reporter [MISCMP] Miscompare for tr.BRESP: lhs = 'h3 : rhs = 'h2
UVM_INFO @ 145000: reporter [MISCMP] 1 Miscompare(s) for object tr@997 vs. tr@977
UVM_INFO scoreboard.sv(56) @ 145000: uvm_test_top.env.sc [SCOREBOARD] DUT: BRESP=2, RDATA=0, RRESP=0
REF: BRESP=3, RDATA=0, RRESP=0
_______________________________________________________________________________________________________________________
_
UVM_INFO driver.sv(39) @ 145000: uvm_test_top.env.act.drv [DRV] AWADDR=36, AWPROT=0, AWVALID=1
UVM_INFO driver.sv(46) @ 145000: uvm_test_top.env.act.drv [DRV] WDATA=2733272882, WSTRB=111, WVALID=1
UVM_INFO driver.sv(53) @ 145000: uvm_test_top.env.act.drv [DRV] ARADDR=2782573284, ARPROT=0, ARVALID=0
UVM_INFO driver.sv(60) @ 145000: uvm_test_top.env.act.drv [DRV] BREADY=0
UVM_INFO driver.sv(65) @ 145000: uvm_test_top.env.act.drv [DRV] RREADY=0
UVM_INFO sequences.sv(60) @ 145000: uvm_test_top.env.act.sqr@@seq [SEQ] AWADDR=33, AWPROT=0, AWVALID=0, WDATA=30149510, WSTRB=1111, WVALID=1, ARADDR=2782573284, ARPROT=0, ARVALID=0, RREADY=1
UVM_INFO monitor.sv(55) @ 155000: uvm_test_top.env.act.mon [uvm_test_top.env.act.mon] rst=1, AWADDR=36, AWPROT=0, AWVALID=1, WDATA=2733272882, WSTRB=7, WVALID=1, BREADY=0, ARADDR=2782573284, ARPROT=0, ARVALID=0, RREADY=0, AWREADY=1, WREADY=0, BRESP=2, BVALID=0, ARREADY=0, ARPROT=0, RDATA=0, RRESP=0, RVALID=1
UVM_INFO monitor.sv(55) @ 155000: uvm_test_top.env.pass.mon [uvm_test_top.env.pass.mon] rst=1, AWADDR=36, AWPROT=0, AWVALID=1, WDATA=2733272882, WSTRB=7, WVALID=1, BREADY=0, ARADDR=2782573284, ARPROT=0, ARVALID=0, RREADY=0, AWREADY=1, WREADY=0, BRESP=2, BVALID=0, ARREADY=0, ARPROT=0, RDATA=0, RRESP=0, RVALID=1
UVM_INFO @ 155000: reporter [MISCMP] Miscompare for tr.BRESP: lhs = 'h3 : rhs = 'h2
UVM_INFO @ 155000: reporter [MISCMP] 1 Miscompare(s) for object tr@1013 vs. tr@993
UVM_INFO scoreboard.sv(56) @ 155000: uvm_test_top.env.sc [SCOREBOARD] DUT: BRESP=2, RDATA=0, RRESP=0
REF: BRESP=3, RDATA=0, RRESP=0
_______________________________________________________________________________________________________________________
_
UVM_INFO driver.sv(39) @ 155000: uvm_test_top.env.act.drv [DRV] AWADDR=33, AWPROT=0, AWVALID=0
UVM_INFO driver.sv(46) @ 155000: uvm_test_top.env.act.drv [DRV] WDATA=30149510, WSTRB=1111, WVALID=1
UVM_INFO driver.sv(53) @ 155000: uvm_test_top.env.act.drv [DRV] ARADDR=2782573284, ARPROT=0, ARVALID=0
UVM_INFO driver.sv(60) @ 155000: uvm_test_top.env.act.drv [DRV] BREADY=0
UVM_INFO driver.sv(65) @ 155000: uvm_test_top.env.act.drv [DRV] RREADY=1
UVM_INFO sequences.sv(60) @ 155000: uvm_test_top.env.act.sqr@@seq [SEQ] AWADDR=5, AWPROT=0, AWVALID=0, WDATA=876648434, WSTRB=1111, WVALID=0, ARADDR=2782573284, ARPROT=0, ARVALID=1, RREADY=0
UVM_INFO monitor.sv(55) @ 165000: uvm_test_top.env.act.mon [uvm_test_top.env.act.mon] rst=1, AWADDR=33, AWPROT=0, AWVALID=0, WDATA=30149510, WSTRB=15, WVALID=1, BREADY=0, ARADDR=2782573284, ARPROT=0, ARVALID=0, RREADY=1, AWREADY=0, WREADY=0, BRESP=2, BVALID=0, ARREADY=0, ARPROT=0, RDATA=0, RRESP=0, RVALID=1
UVM_INFO monitor.sv(55) @ 165000: uvm_test_top.env.pass.mon [uvm_test_top.env.pass.mon] rst=1, AWADDR=33, AWPROT=0, AWVALID=0, WDATA=30149510, WSTRB=15, WVALID=1, BREADY=0, ARADDR=2782573284, ARPROT=0, ARVALID=0, RREADY=1, AWREADY=0, WREADY=0, BRESP=2, BVALID=0, ARREADY=0, ARPROT=0, RDATA=0, RRESP=0, RVALID=1
UVM_INFO @ 165000: reporter [MISCMP] Miscompare for tr.BRESP: lhs = 'h3 : rhs = 'h2
UVM_INFO @ 165000: reporter [MISCMP] 1 Miscompare(s) for object tr@1029 vs. tr@1009
UVM_INFO scoreboard.sv(56) @ 165000: uvm_test_top.env.sc [SCOREBOARD] DUT: BRESP=2, RDATA=0, RRESP=0
REF: BRESP=3, RDATA=0, RRESP=0
_______________________________________________________________________________________________________________________
_
UVM_INFO driver.sv(39) @ 165000: uvm_test_top.env.act.drv [DRV] AWADDR=5, AWPROT=0, AWVALID=0
UVM_INFO driver.sv(46) @ 165000: uvm_test_top.env.act.drv [DRV] WDATA=876648434, WSTRB=1111, WVALID=0
UVM_INFO driver.sv(53) @ 165000: uvm_test_top.env.act.drv [DRV] ARADDR=2782573284, ARPROT=0, ARVALID=1
UVM_INFO driver.sv(60) @ 165000: uvm_test_top.env.act.drv [DRV] BREADY=1
UVM_INFO driver.sv(65) @ 165000: uvm_test_top.env.act.drv [DRV] RREADY=0
UVM_INFO sequences.sv(55) @ 165000: uvm_test_top.env.act.sqr@@seq [SEQ] AWADDR=3233169876, AWPROT=0, AWVALID=0, WDATA=2757943871, WSTRB=101, WVALID=0, ARADDR=2782573284, ARPROT=0, ARVALID=1, RREADY=0
UVM_INFO monitor.sv(55) @ 175000: uvm_test_top.env.act.mon [uvm_test_top.env.act.mon] rst=1, AWADDR=5, AWPROT=0, AWVALID=0, WDATA=876648434, WSTRB=15, WVALID=0, BREADY=1, ARADDR=2782573284, ARPROT=0, ARVALID=1, RREADY=0, AWREADY=0, WREADY=0, BRESP=2, BVALID=1, ARREADY=0, ARPROT=0, RDATA=0, RRESP=0, RVALID=0
UVM_INFO monitor.sv(55) @ 175000: uvm_test_top.env.pass.mon [uvm_test_top.env.pass.mon] rst=1, AWADDR=5, AWPROT=0, AWVALID=0, WDATA=876648434, WSTRB=15, WVALID=0, BREADY=1, ARADDR=2782573284, ARPROT=0, ARVALID=1, RREADY=0, AWREADY=0, WREADY=0, BRESP=2, BVALID=1, ARREADY=0, ARPROT=0, RDATA=0, RRESP=0, RVALID=0
UVM_INFO @ 175000: reporter [MISCMP] Miscompare for tr.BRESP: lhs = 'h0 : rhs = 'h2
UVM_INFO @ 175000: reporter [MISCMP] 1 Miscompare(s) for object tr@1045 vs. tr@1025
UVM_INFO scoreboard.sv(56) @ 175000: uvm_test_top.env.sc [SCOREBOARD] DUT: BRESP=2, RDATA=0, RRESP=0
REF: BRESP=0, RDATA=0, RRESP=0
_______________________________________________________________________________________________________________________
_
UVM_INFO driver.sv(39) @ 175000: uvm_test_top.env.act.drv [DRV] AWADDR=3233169876, AWPROT=0, AWVALID=0
UVM_INFO driver.sv(46) @ 175000: uvm_test_top.env.act.drv [DRV] WDATA=2757943871, WSTRB=101, WVALID=0
UVM_INFO driver.sv(53) @ 175000: uvm_test_top.env.act.drv [DRV] ARADDR=2782573284, ARPROT=0, ARVALID=1
UVM_INFO driver.sv(60) @ 175000: uvm_test_top.env.act.drv [DRV] BREADY=1
UVM_INFO driver.sv(65) @ 175000: uvm_test_top.env.act.drv [DRV] RREADY=0
UVM_INFO sequences.sv(55) @ 175000: uvm_test_top.env.act.sqr@@seq [SEQ] AWADDR=1371192196, AWPROT=0, AWVALID=0, WDATA=1011610608, WSTRB=1000, WVALID=0, ARADDR=2782573284, ARPROT=0, ARVALID=1, RREADY=1
UVM_INFO monitor.sv(55) @ 185000: uvm_test_top.env.act.mon [uvm_test_top.env.act.mon] rst=1, AWADDR=3233169876, AWPROT=0, AWVALID=0, WDATA=2757943871, WSTRB=5, WVALID=0, BREADY=1, ARADDR=2782573284, ARPROT=0, ARVALID=1, RREADY=0, AWREADY=0, WREADY=0, BRESP=2, BVALID=0, ARREADY=1, ARPROT=0, RDATA=0, RRESP=0, RVALID=0
UVM_INFO monitor.sv(55) @ 185000: uvm_test_top.env.pass.mon [uvm_test_top.env.pass.mon] rst=1, AWADDR=3233169876, AWPROT=0, AWVALID=0, WDATA=2757943871, WSTRB=5, WVALID=0, BREADY=1, ARADDR=2782573284, ARPROT=0, ARVALID=1, RREADY=0, AWREADY=0, WREADY=0, BRESP=2, BVALID=0, ARREADY=1, ARPROT=0, RDATA=0, RRESP=0, RVALID=0
UVM_INFO @ 185000: reporter [MISCMP] Miscompare for tr.BRESP: lhs = 'h0 : rhs = 'h2
UVM_INFO @ 185000: reporter [MISCMP] 1 Miscompare(s) for object tr@1061 vs. tr@1041
UVM_INFO scoreboard.sv(56) @ 185000: uvm_test_top.env.sc [SCOREBOARD] DUT: BRESP=2, RDATA=0, RRESP=0
REF: BRESP=0, RDATA=0, RRESP=0
_______________________________________________________________________________________________________________________
_
UVM_INFO driver.sv(39) @ 185000: uvm_test_top.env.act.drv [DRV] AWADDR=1371192196, AWPROT=0, AWVALID=0
UVM_INFO driver.sv(46) @ 185000: uvm_test_top.env.act.drv [DRV] WDATA=1011610608, WSTRB=1000, WVALID=0
UVM_INFO driver.sv(53) @ 185000: uvm_test_top.env.act.drv [DRV] ARADDR=2782573284, ARPROT=0, ARVALID=1
UVM_INFO driver.sv(60) @ 185000: uvm_test_top.env.act.drv [DRV] BREADY=0
UVM_INFO driver.sv(65) @ 185000: uvm_test_top.env.act.drv [DRV] RREADY=1
UVM_INFO sequences.sv(49) @ 185000: uvm_test_top.env.act.sqr@@seq [SEQ] AWADDR=1968088196, AWPROT=0, AWVALID=0, WDATA=510226934, WSTRB=1100, WVALID=1, ARADDR=3, ARPROT=0, ARVALID=1, RREADY=0
UVM_INFO monitor.sv(55) @ 195000: uvm_test_top.env.act.mon [uvm_test_top.env.act.mon] rst=1, AWADDR=1371192196, AWPROT=0, AWVALID=0, WDATA=1011610608, WSTRB=8, WVALID=0, BREADY=0, ARADDR=2782573284, ARPROT=0, ARVALID=1, RREADY=1, AWREADY=1, WREADY=1, BRESP=2, BVALID=0, ARREADY=0, ARPROT=0, RDATA=0, RRESP=3, RVALID=1
UVM_INFO monitor.sv(55) @ 195000: uvm_test_top.env.pass.mon [uvm_test_top.env.pass.mon] rst=1, AWADDR=1371192196, AWPROT=0, AWVALID=0, WDATA=1011610608, WSTRB=8, WVALID=0, BREADY=0, ARADDR=2782573284, ARPROT=0, ARVALID=1, RREADY=1, AWREADY=1, WREADY=1, BRESP=2, BVALID=0, ARREADY=0, ARPROT=0, RDATA=0, RRESP=3, RVALID=1
UVM_INFO @ 195000: reporter [MISCMP] Miscompare for tr.BRESP: lhs = 'h0 : rhs = 'h2
UVM_INFO @ 195000: reporter [MISCMP] 1 Miscompare(s) for object tr@1077 vs. tr@1057
UVM_INFO scoreboard.sv(56) @ 195000: uvm_test_top.env.sc [SCOREBOARD] DUT: BRESP=2, RDATA=0, RRESP=3
REF: BRESP=0, RDATA=0, RRESP=3
_______________________________________________________________________________________________________________________
_
UVM_INFO driver.sv(39) @ 195000: uvm_test_top.env.act.drv [DRV] AWADDR=1968088196, AWPROT=0, AWVALID=0
UVM_INFO driver.sv(46) @ 195000: uvm_test_top.env.act.drv [DRV] WDATA=510226934, WSTRB=1100, WVALID=1
UVM_INFO driver.sv(53) @ 195000: uvm_test_top.env.act.drv [DRV] ARADDR=3, ARPROT=0, ARVALID=1
UVM_INFO driver.sv(60) @ 195000: uvm_test_top.env.act.drv [DRV] BREADY=1
UVM_INFO driver.sv(65) @ 195000: uvm_test_top.env.act.drv [DRV] RREADY=0
UVM_INFO sequences.sv(55) @ 195000: uvm_test_top.env.act.sqr@@seq [SEQ] AWADDR=44, AWPROT=0, AWVALID=0, WDATA=603812956, WSTRB=111, WVALID=1, ARADDR=3, ARPROT=0, ARVALID=1, RREADY=0
UVM_INFO monitor.sv(55) @ 205000: uvm_test_top.env.act.mon [uvm_test_top.env.act.mon] rst=1, AWADDR=1968088196, AWPROT=0, AWVALID=0, WDATA=510226934, WSTRB=12, WVALID=1, BREADY=1, ARADDR=3, ARPROT=0, ARVALID=1, RREADY=0, AWREADY=1, WREADY=1, BRESP=2, BVALID=0, ARREADY=0, ARPROT=0, RDATA=0, RRESP=3, RVALID=0
UVM_INFO monitor.sv(55) @ 205000: uvm_test_top.env.pass.mon [uvm_test_top.env.pass.mon] rst=1, AWADDR=1968088196, AWPROT=0, AWVALID=0, WDATA=510226934, WSTRB=12, WVALID=1, BREADY=1, ARADDR=3, ARPROT=0, ARVALID=1, RREADY=0, AWREADY=1, WREADY=1, BRESP=2, BVALID=0, ARREADY=0, ARPROT=0, RDATA=0, RRESP=3, RVALID=0
UVM_INFO @ 205000: reporter [MISCMP] Miscompare for tr.BRESP: lhs = 'h0 : rhs = 'h2
UVM_INFO @ 205000: reporter [MISCMP] 1 Miscompare(s) for object tr@1093 vs. tr@1073
UVM_INFO scoreboard.sv(56) @ 205000: uvm_test_top.env.sc [SCOREBOARD] DUT: BRESP=2, RDATA=0, RRESP=3
REF: BRESP=0, RDATA=0, RRESP=3
_______________________________________________________________________________________________________________________
_
UVM_INFO driver.sv(39) @ 205000: uvm_test_top.env.act.drv [DRV] AWADDR=44, AWPROT=0, AWVALID=0
UVM_INFO driver.sv(46) @ 205000: uvm_test_top.env.act.drv [DRV] WDATA=603812956, WSTRB=111, WVALID=1
UVM_INFO driver.sv(53) @ 205000: uvm_test_top.env.act.drv [DRV] ARADDR=3, ARPROT=0, ARVALID=1
UVM_INFO driver.sv(60) @ 205000: uvm_test_top.env.act.drv [DRV] BREADY=1
UVM_INFO driver.sv(65) @ 205000: uvm_test_top.env.act.drv [DRV] RREADY=0
UVM_INFO sequences.sv(55) @ 205000: uvm_test_top.env.act.sqr@@seq [SEQ] AWADDR=1737656272, AWPROT=0, AWVALID=1, WDATA=1070839366, WSTRB=110, WVALID=1, ARADDR=3, ARPROT=0, ARVALID=1, RREADY=0
UVM_INFO monitor.sv(55) @ 215000: uvm_test_top.env.act.mon [uvm_test_top.env.act.mon] rst=1, AWADDR=44, AWPROT=0, AWVALID=0, WDATA=603812956, WSTRB=7, WVALID=1, BREADY=1, ARADDR=3, ARPROT=0, ARVALID=1, RREADY=0, AWREADY=1, WREADY=1, BRESP=2, BVALID=0, ARREADY=1, ARPROT=0, RDATA=0, RRESP=3, RVALID=0
UVM_INFO monitor.sv(55) @ 215000: uvm_test_top.env.pass.mon [uvm_test_top.env.pass.mon] rst=1, AWADDR=44, AWPROT=0, AWVALID=0, WDATA=603812956, WSTRB=7, WVALID=1, BREADY=1, ARADDR=3, ARPROT=0, ARVALID=1, RREADY=0, AWREADY=1, WREADY=1, BRESP=2, BVALID=0, ARREADY=1, ARPROT=0, RDATA=0, RRESP=3, RVALID=0
UVM_INFO @ 215000: reporter [MISCMP] Miscompare for tr.BRESP: lhs = 'h0 : rhs = 'h2
UVM_INFO @ 215000: reporter [MISCMP] 1 Miscompare(s) for object tr@1109 vs. tr@1089
UVM_INFO scoreboard.sv(56) @ 215000: uvm_test_top.env.sc [SCOREBOARD] DUT: BRESP=2, RDATA=0, RRESP=3
REF: BRESP=0, RDATA=0, RRESP=3
_______________________________________________________________________________________________________________________
_
UVM_INFO driver.sv(39) @ 215000: uvm_test_top.env.act.drv [DRV] AWADDR=1737656272, AWPROT=0, AWVALID=1
UVM_INFO driver.sv(46) @ 215000: uvm_test_top.env.act.drv [DRV] WDATA=1070839366, WSTRB=110, WVALID=1
UVM_INFO driver.sv(53) @ 215000: uvm_test_top.env.act.drv [DRV] ARADDR=3, ARPROT=0, ARVALID=1
UVM_INFO driver.sv(60) @ 215000: uvm_test_top.env.act.drv [DRV] BREADY=1
UVM_INFO driver.sv(65) @ 215000: uvm_test_top.env.act.drv [DRV] RREADY=0
UVM_INFO sequences.sv(49) @ 215000: uvm_test_top.env.act.sqr@@seq [SEQ] AWADDR=16, AWPROT=0, AWVALID=1, WDATA=3727291607, WSTRB=110, WVALID=1, ARADDR=1152594404, ARPROT=0, ARVALID=0, RREADY=1
UVM_INFO monitor.sv(55) @ 225000: uvm_test_top.env.act.mon [uvm_test_top.env.act.mon] rst=1, AWADDR=1737656272, AWPROT=0, AWVALID=1, WDATA=1070839366, WSTRB=6, WVALID=1, BREADY=1, ARADDR=3, ARPROT=0, ARVALID=1, RREADY=0, AWREADY=1, WREADY=0, BRESP=2, BVALID=0, ARREADY=0, ARPROT=0, RDATA=0, RRESP=2, RVALID=1
UVM_INFO monitor.sv(55) @ 225000: uvm_test_top.env.pass.mon [uvm_test_top.env.pass.mon] rst=1, AWADDR=1737656272, AWPROT=0, AWVALID=1, WDATA=1070839366, WSTRB=6, WVALID=1, BREADY=1, ARADDR=3, ARPROT=0, ARVALID=1, RREADY=0, AWREADY=1, WREADY=0, BRESP=2, BVALID=0, ARREADY=0, ARPROT=0, RDATA=0, RRESP=2, RVALID=1
UVM_INFO @ 225000: reporter [MISCMP] Miscompare for tr.BRESP: lhs = 'h0 : rhs = 'h2
UVM_INFO @ 225000: reporter [MISCMP] 1 Miscompare(s) for object tr@1125 vs. tr@1105
UVM_INFO scoreboard.sv(56) @ 225000: uvm_test_top.env.sc [SCOREBOARD] DUT: BRESP=2, RDATA=0, RRESP=2
REF: BRESP=0, RDATA=0, RRESP=2
_______________________________________________________________________________________________________________________
_
UVM_INFO driver.sv(39) @ 225000: uvm_test_top.env.act.drv [DRV] AWADDR=16, AWPROT=0, AWVALID=1
UVM_INFO driver.sv(46) @ 225000: uvm_test_top.env.act.drv [DRV] WDATA=3727291607, WSTRB=110, WVALID=1
UVM_INFO driver.sv(53) @ 225000: uvm_test_top.env.act.drv [DRV] ARADDR=1152594404, ARPROT=0, ARVALID=0
UVM_INFO driver.sv(60) @ 225000: uvm_test_top.env.act.drv [DRV] BREADY=0
UVM_INFO driver.sv(65) @ 225000: uvm_test_top.env.act.drv [DRV] RREADY=1
UVM_INFO sequences.sv(60) @ 225000: uvm_test_top.env.act.sqr@@seq [SEQ] AWADDR=2459152767, AWPROT=0, AWVALID=0, WDATA=3184584351, WSTRB=11, WVALID=1, ARADDR=1152594404, ARPROT=0, ARVALID=1, RREADY=1
UVM_INFO monitor.sv(55) @ 235000: uvm_test_top.env.act.mon [uvm_test_top.env.act.mon] rst=1, AWADDR=16, AWPROT=0, AWVALID=1, WDATA=3727291607, WSTRB=6, WVALID=1, BREADY=0, ARADDR=1152594404, ARPROT=0, ARVALID=0, RREADY=1, AWREADY=0, WREADY=0, BRESP=2, BVALID=0, ARREADY=0, ARPROT=0, RDATA=0, RRESP=2, RVALID=1
UVM_INFO monitor.sv(55) @ 235000: uvm_test_top.env.pass.mon [uvm_test_top.env.pass.mon] rst=1, AWADDR=16, AWPROT=0, AWVALID=1, WDATA=3727291607, WSTRB=6, WVALID=1, BREADY=0, ARADDR=1152594404, ARPROT=0, ARVALID=0, RREADY=1, AWREADY=0, WREADY=0, BRESP=2, BVALID=0, ARREADY=0, ARPROT=0, RDATA=0, RRESP=2, RVALID=1
UVM_INFO @ 235000: reporter [MISCMP] Miscompare for tr.BRESP: lhs = 'h0 : rhs = 'h2
UVM_INFO @ 235000: reporter [MISCMP] 1 Miscompare(s) for object tr@1141 vs. tr@1121
UVM_INFO scoreboard.sv(56) @ 235000: uvm_test_top.env.sc [SCOREBOARD] DUT: BRESP=2, RDATA=0, RRESP=2
REF: BRESP=0, RDATA=0, RRESP=2
_______________________________________________________________________________________________________________________
_
UVM_INFO driver.sv(39) @ 235000: uvm_test_top.env.act.drv [DRV] AWADDR=2459152767, AWPROT=0, AWVALID=0
UVM_INFO driver.sv(46) @ 235000: uvm_test_top.env.act.drv [DRV] WDATA=3184584351, WSTRB=11, WVALID=1
UVM_INFO driver.sv(53) @ 235000: uvm_test_top.env.act.drv [DRV] ARADDR=1152594404, ARPROT=0, ARVALID=1
UVM_INFO driver.sv(60) @ 235000: uvm_test_top.env.act.drv [DRV] BREADY=1
UVM_INFO driver.sv(65) @ 235000: uvm_test_top.env.act.drv [DRV] RREADY=1
UVM_INFO sequences.sv(55) @ 235000: uvm_test_top.env.act.sqr@@seq [SEQ] AWADDR=1825896107, AWPROT=0, AWVALID=1, WDATA=4186806300, WSTRB=10, WVALID=1, ARADDR=1152594404, ARPROT=0, ARVALID=1, RREADY=0
UVM_INFO monitor.sv(55) @ 245000: uvm_test_top.env.act.mon [uvm_test_top.env.act.mon] rst=1, AWADDR=2459152767, AWPROT=0, AWVALID=0, WDATA=3184584351, WSTRB=3, WVALID=1, BREADY=1, ARADDR=1152594404, ARPROT=0, ARVALID=1, RREADY=1, AWREADY=0, WREADY=0, BRESP=0, BVALID=1, ARREADY=0, ARPROT=0, RDATA=0, RRESP=2, RVALID=0
UVM_INFO monitor.sv(55) @ 245000: uvm_test_top.env.pass.mon [uvm_test_top.env.pass.mon] rst=1, AWADDR=2459152767, AWPROT=0, AWVALID=0, WDATA=3184584351, WSTRB=3, WVALID=1, BREADY=1, ARADDR=1152594404, ARPROT=0, ARVALID=1, RREADY=1, AWREADY=0, WREADY=0, BRESP=0, BVALID=1, ARREADY=0, ARPROT=0, RDATA=0, RRESP=2, RVALID=0
UVM_INFO @ 245000: reporter [MISCMP] Miscompare for tr.BRESP: lhs = 'h3 : rhs = 'h0
UVM_INFO @ 245000: reporter [MISCMP] 1 Miscompare(s) for object tr@1157 vs. tr@1137
UVM_INFO scoreboard.sv(56) @ 245000: uvm_test_top.env.sc [SCOREBOARD] DUT: BRESP=0, RDATA=0, RRESP=2
REF: BRESP=3, RDATA=0, RRESP=2
_______________________________________________________________________________________________________________________
_
UVM_INFO driver.sv(39) @ 245000: uvm_test_top.env.act.drv [DRV] AWADDR=1825896107, AWPROT=0, AWVALID=1
UVM_INFO driver.sv(46) @ 245000: uvm_test_top.env.act.drv [DRV] WDATA=4186806300, WSTRB=10, WVALID=1
UVM_INFO driver.sv(53) @ 245000: uvm_test_top.env.act.drv [DRV] ARADDR=1152594404, ARPROT=0, ARVALID=1
UVM_INFO driver.sv(60) @ 245000: uvm_test_top.env.act.drv [DRV] BREADY=0
UVM_INFO driver.sv(65) @ 245000: uvm_test_top.env.act.drv [DRV] RREADY=0
UVM_INFO sequences.sv(55) @ 245000: uvm_test_top.env.act.sqr@@seq [SEQ] AWADDR=1700601344, AWPROT=0, AWVALID=1, WDATA=1836075419, WSTRB=1100, WVALID=1, ARADDR=1152594404, ARPROT=0, ARVALID=1, RREADY=1
UVM_INFO monitor.sv(55) @ 255000: uvm_test_top.env.act.mon [uvm_test_top.env.act.mon] rst=1, AWADDR=1825896107, AWPROT=0, AWVALID=1, WDATA=4186806300, WSTRB=2, WVALID=1, BREADY=0, ARADDR=1152594404, ARPROT=0, ARVALID=1, RREADY=0, AWREADY=0, WREADY=0, BRESP=0, BVALID=0, ARREADY=1, ARPROT=0, RDATA=0, RRESP=2, RVALID=0
UVM_INFO monitor.sv(55) @ 255000: uvm_test_top.env.pass.mon [uvm_test_top.env.pass.mon] rst=1, AWADDR=1825896107, AWPROT=0, AWVALID=1, WDATA=4186806300, WSTRB=2, WVALID=1, BREADY=0, ARADDR=1152594404, ARPROT=0, ARVALID=1, RREADY=0, AWREADY=0, WREADY=0, BRESP=0, BVALID=0, ARREADY=1, ARPROT=0, RDATA=0, RRESP=2, RVALID=0
UVM_INFO @ 255000: reporter [MISCMP] Miscompare for tr.BRESP: lhs = 'h3 : rhs = 'h0
UVM_INFO @ 255000: reporter [MISCMP] 1 Miscompare(s) for object tr@1173 vs. tr@1153
UVM_INFO scoreboard.sv(56) @ 255000: uvm_test_top.env.sc [SCOREBOARD] DUT: BRESP=0, RDATA=0, RRESP=2
REF: BRESP=3, RDATA=0, RRESP=2
_______________________________________________________________________________________________________________________
_
UVM_INFO driver.sv(39) @ 255000: uvm_test_top.env.act.drv [DRV] AWADDR=1700601344, AWPROT=0, AWVALID=1
UVM_INFO driver.sv(46) @ 255000: uvm_test_top.env.act.drv [DRV] WDATA=1836075419, WSTRB=1100, WVALID=1
UVM_INFO driver.sv(53) @ 255000: uvm_test_top.env.act.drv [DRV] ARADDR=1152594404, ARPROT=0, ARVALID=1
UVM_INFO driver.sv(60) @ 255000: uvm_test_top.env.act.drv [DRV] BREADY=0
UVM_INFO driver.sv(65) @ 255000: uvm_test_top.env.act.drv [DRV] RREADY=1
UVM_INFO sequences.sv(49) @ 255000: uvm_test_top.env.act.sqr@@seq [SEQ] AWADDR=2724720316, AWPROT=0, AWVALID=0, WDATA=2619443119, WSTRB=10, WVALID=0, ARADDR=575191100, ARPROT=0, ARVALID=1, RREADY=0
UVM_INFO monitor.sv(55) @ 265000: uvm_test_top.env.act.mon [uvm_test_top.env.act.mon] rst=1, AWADDR=1700601344, AWPROT=0, AWVALID=1, WDATA=1836075419, WSTRB=12, WVALID=1, BREADY=0, ARADDR=1152594404, ARPROT=0, ARVALID=1, RREADY=1, AWREADY=1, WREADY=1, BRESP=0, BVALID=0, ARREADY=0, ARPROT=0, RDATA=0, RRESP=3, RVALID=1
UVM_INFO monitor.sv(55) @ 265000: uvm_test_top.env.pass.mon [uvm_test_top.env.pass.mon] rst=1, AWADDR=1700601344, AWPROT=0, AWVALID=1, WDATA=1836075419, WSTRB=12, WVALID=1, BREADY=0, ARADDR=1152594404, ARPROT=0, ARVALID=1, RREADY=1, AWREADY=1, WREADY=1, BRESP=0, BVALID=0, ARREADY=0, ARPROT=0, RDATA=0, RRESP=3, RVALID=1
UVM_INFO @ 265000: reporter [MISCMP] Miscompare for tr.BRESP: lhs = 'h3 : rhs = 'h0
UVM_INFO @ 265000: reporter [MISCMP] 1 Miscompare(s) for object tr@1189 vs. tr@1169
UVM_INFO scoreboard.sv(56) @ 265000: uvm_test_top.env.sc [SCOREBOARD] DUT: BRESP=0, RDATA=0, RRESP=3
REF: BRESP=3, RDATA=0, RRESP=3
_______________________________________________________________________________________________________________________
_
UVM_INFO driver.sv(39) @ 265000: uvm_test_top.env.act.drv [DRV] AWADDR=2724720316, AWPROT=0, AWVALID=0
UVM_INFO driver.sv(46) @ 265000: uvm_test_top.env.act.drv [DRV] WDATA=2619443119, WSTRB=10, WVALID=0
UVM_INFO driver.sv(53) @ 265000: uvm_test_top.env.act.drv [DRV] ARADDR=575191100, ARPROT=0, ARVALID=1
UVM_INFO driver.sv(60) @ 265000: uvm_test_top.env.act.drv [DRV] BREADY=0
UVM_INFO driver.sv(65) @ 265000: uvm_test_top.env.act.drv [DRV] RREADY=0
UVM_INFO sequences.sv(55) @ 265000: uvm_test_top.env.act.sqr@@seq [SEQ] AWADDR=54, AWPROT=0, AWVALID=1, WDATA=998714946, WSTRB=110, WVALID=0, ARADDR=575191100, ARPROT=0, ARVALID=1, RREADY=0
UVM_INFO monitor.sv(55) @ 275000: uvm_test_top.env.act.mon [uvm_test_top.env.act.mon] rst=1, AWADDR=2724720316, AWPROT=0, AWVALID=0, WDATA=2619443119, WSTRB=2, WVALID=0, BREADY=0, ARADDR=575191100, ARPROT=0, ARVALID=1, RREADY=0, AWREADY=0, WREADY=0, BRESP=0, BVALID=0, ARREADY=0, ARPROT=0, RDATA=0, RRESP=3, RVALID=0
UVM_INFO monitor.sv(55) @ 275000: uvm_test_top.env.pass.mon [uvm_test_top.env.pass.mon] rst=1, AWADDR=2724720316, AWPROT=0, AWVALID=0, WDATA=2619443119, WSTRB=2, WVALID=0, BREADY=0, ARADDR=575191100, ARPROT=0, ARVALID=1, RREADY=0, AWREADY=0, WREADY=0, BRESP=0, BVALID=0, ARREADY=0, ARPROT=0, RDATA=0, RRESP=3, RVALID=0
UVM_INFO @ 275000: reporter [MISCMP] Miscompare for tr.BRESP: lhs = 'h3 : rhs = 'h0
UVM_INFO @ 275000: reporter [MISCMP] 1 Miscompare(s) for object tr@1205 vs. tr@1185
UVM_INFO scoreboard.sv(56) @ 275000: uvm_test_top.env.sc [SCOREBOARD] DUT: BRESP=0, RDATA=0, RRESP=3
REF: BRESP=3, RDATA=0, RRESP=3
_______________________________________________________________________________________________________________________
_
UVM_INFO driver.sv(39) @ 275000: uvm_test_top.env.act.drv [DRV] AWADDR=54, AWPROT=0, AWVALID=1
UVM_INFO driver.sv(46) @ 275000: uvm_test_top.env.act.drv [DRV] WDATA=998714946, WSTRB=110, WVALID=0
UVM_INFO driver.sv(53) @ 275000: uvm_test_top.env.act.drv [DRV] ARADDR=575191100, ARPROT=0, ARVALID=1
UVM_INFO driver.sv(60) @ 275000: uvm_test_top.env.act.drv [DRV] BREADY=0
UVM_INFO driver.sv(65) @ 275000: uvm_test_top.env.act.drv [DRV] RREADY=0
UVM_INFO sequences.sv(55) @ 275000: uvm_test_top.env.act.sqr@@seq [SEQ] AWADDR=2133794246, AWPROT=0, AWVALID=0, WDATA=3742271760, WSTRB=1010, WVALID=0, ARADDR=575191100, ARPROT=0, ARVALID=1, RREADY=0
UVM_INFO monitor.sv(55) @ 285000: uvm_test_top.env.act.mon [uvm_test_top.env.act.mon] rst=1, AWADDR=54, AWPROT=0, AWVALID=1, WDATA=998714946, WSTRB=6, WVALID=0, BREADY=0, ARADDR=575191100, ARPROT=0, ARVALID=1, RREADY=0, AWREADY=0, WREADY=0, BRESP=3, BVALID=1, ARREADY=1, ARPROT=0, RDATA=0, RRESP=3, RVALID=0
UVM_INFO monitor.sv(55) @ 285000: uvm_test_top.env.pass.mon [uvm_test_top.env.pass.mon] rst=1, AWADDR=54, AWPROT=0, AWVALID=1, WDATA=998714946, WSTRB=6, WVALID=0, BREADY=0, ARADDR=575191100, ARPROT=0, ARVALID=1, RREADY=0, AWREADY=0, WREADY=0, BRESP=3, BVALID=1, ARREADY=1, ARPROT=0, RDATA=0, RRESP=3, RVALID=0
UVM_INFO scoreboard.sv(53) @ 285000: uvm_test_top.env.sc [SCOREBOARD] DUT: BRESP=3, RDATA=0, RRESP=3
REF: BRESP=3, RDATA=0, RRESP=3


UVM_INFO driver.sv(39) @ 285000: uvm_test_top.env.act.drv [DRV] AWADDR=2133794246, AWPROT=0, AWVALID=0
UVM_INFO driver.sv(46) @ 285000: uvm_test_top.env.act.drv [DRV] WDATA=3742271760, WSTRB=1010, WVALID=0
UVM_INFO driver.sv(53) @ 285000: uvm_test_top.env.act.drv [DRV] ARADDR=575191100, ARPROT=0, ARVALID=1
UVM_INFO driver.sv(60) @ 285000: uvm_test_top.env.act.drv [DRV] BREADY=0
UVM_INFO driver.sv(65) @ 285000: uvm_test_top.env.act.drv [DRV] RREADY=0
UVM_INFO sequences.sv(49) @ 285000: uvm_test_top.env.act.sqr@@seq [SEQ] AWADDR=3096608579, AWPROT=0, AWVALID=1, WDATA=1131951288, WSTRB=100, WVALID=0, ARADDR=59, ARPROT=0, ARVALID=1, RREADY=0
UVM_INFO monitor.sv(55) @ 295000: uvm_test_top.env.act.mon [uvm_test_top.env.act.mon] rst=1, AWADDR=2133794246, AWPROT=0, AWVALID=0, WDATA=3742271760, WSTRB=10, WVALID=0, BREADY=0, ARADDR=575191100, ARPROT=0, ARVALID=1, RREADY=0, AWREADY=0, WREADY=0, BRESP=3, BVALID=1, ARREADY=0, ARPROT=0, RDATA=0, RRESP=3, RVALID=1
UVM_INFO monitor.sv(55) @ 295000: uvm_test_top.env.pass.mon [uvm_test_top.env.pass.mon] rst=1, AWADDR=2133794246, AWPROT=0, AWVALID=0, WDATA=3742271760, WSTRB=10, WVALID=0, BREADY=0, ARADDR=575191100, ARPROT=0, ARVALID=1, RREADY=0, AWREADY=0, WREADY=0, BRESP=3, BVALID=1, ARREADY=0, ARPROT=0, RDATA=0, RRESP=3, RVALID=1
UVM_INFO scoreboard.sv(53) @ 295000: uvm_test_top.env.sc [SCOREBOARD] DUT: BRESP=3, RDATA=0, RRESP=3
REF: BRESP=3, RDATA=0, RRESP=3


UVM_INFO driver.sv(39) @ 295000: uvm_test_top.env.act.drv [DRV] AWADDR=3096608579, AWPROT=0, AWVALID=1
UVM_INFO driver.sv(46) @ 295000: uvm_test_top.env.act.drv [DRV] WDATA=1131951288, WSTRB=100, WVALID=0
UVM_INFO driver.sv(53) @ 295000: uvm_test_top.env.act.drv [DRV] ARADDR=59, ARPROT=0, ARVALID=1
UVM_INFO driver.sv(60) @ 295000: uvm_test_top.env.act.drv [DRV] BREADY=0
UVM_INFO driver.sv(65) @ 295000: uvm_test_top.env.act.drv [DRV] RREADY=0
UVM_INFO sequences.sv(55) @ 295000: uvm_test_top.env.act.sqr@@seq [SEQ] AWADDR=35, AWPROT=0, AWVALID=0, WDATA=2160438339, WSTRB=1111, WVALID=1, ARADDR=59, ARPROT=0, ARVALID=1, RREADY=0
UVM_INFO monitor.sv(55) @ 305000: uvm_test_top.env.act.mon [uvm_test_top.env.act.mon] rst=1, AWADDR=3096608579, AWPROT=0, AWVALID=1, WDATA=1131951288, WSTRB=4, WVALID=0, BREADY=0, ARADDR=59, ARPROT=0, ARVALID=1, RREADY=0, AWREADY=0, WREADY=0, BRESP=3, BVALID=1, ARREADY=0, ARPROT=0, RDATA=0, RRESP=3, RVALID=1
UVM_INFO monitor.sv(55) @ 305000: uvm_test_top.env.pass.mon [uvm_test_top.env.pass.mon] rst=1, AWADDR=3096608579, AWPROT=0, AWVALID=1, WDATA=1131951288, WSTRB=4, WVALID=0, BREADY=0, ARADDR=59, ARPROT=0, ARVALID=1, RREADY=0, AWREADY=0, WREADY=0, BRESP=3, BVALID=1, ARREADY=0, ARPROT=0, RDATA=0, RRESP=3, RVALID=1
UVM_INFO scoreboard.sv(53) @ 305000: uvm_test_top.env.sc [SCOREBOARD] DUT: BRESP=3, RDATA=0, RRESP=3
REF: BRESP=3, RDATA=0, RRESP=3


UVM_INFO driver.sv(39) @ 305000: uvm_test_top.env.act.drv [DRV] AWADDR=35, AWPROT=0, AWVALID=0
UVM_INFO driver.sv(46) @ 305000: uvm_test_top.env.act.drv [DRV] WDATA=2160438339, WSTRB=1111, WVALID=1
UVM_INFO driver.sv(53) @ 305000: uvm_test_top.env.act.drv [DRV] ARADDR=59, ARPROT=0, ARVALID=1
UVM_INFO driver.sv(60) @ 305000: uvm_test_top.env.act.drv [DRV] BREADY=0
UVM_INFO driver.sv(65) @ 305000: uvm_test_top.env.act.drv [DRV] RREADY=0
UVM_INFO sequences.sv(55) @ 305000: uvm_test_top.env.act.sqr@@seq [SEQ] AWADDR=17, AWPROT=0, AWVALID=1, WDATA=2221164379, WSTRB=111, WVALID=0, ARADDR=59, ARPROT=0, ARVALID=1, RREADY=0
UVM_INFO monitor.sv(55) @ 315000: uvm_test_top.env.act.mon [uvm_test_top.env.act.mon] rst=1, AWADDR=35, AWPROT=0, AWVALID=0, WDATA=2160438339, WSTRB=15, WVALID=1, BREADY=0, ARADDR=59, ARPROT=0, ARVALID=1, RREADY=0, AWREADY=0, WREADY=0, BRESP=3, BVALID=1, ARREADY=0, ARPROT=0, RDATA=0, RRESP=3, RVALID=1
UVM_INFO monitor.sv(55) @ 315000: uvm_test_top.env.pass.mon [uvm_test_top.env.pass.mon] rst=1, AWADDR=35, AWPROT=0, AWVALID=0, WDATA=2160438339, WSTRB=15, WVALID=1, BREADY=0, ARADDR=59, ARPROT=0, ARVALID=1, RREADY=0, AWREADY=0, WREADY=0, BRESP=3, BVALID=1, ARREADY=0, ARPROT=0, RDATA=0, RRESP=3, RVALID=1
UVM_INFO scoreboard.sv(53) @ 315000: uvm_test_top.env.sc [SCOREBOARD] DUT: BRESP=3, RDATA=0, RRESP=3
REF: BRESP=3, RDATA=0, RRESP=3


UVM_INFO driver.sv(39) @ 315000: uvm_test_top.env.act.drv [DRV] AWADDR=17, AWPROT=0, AWVALID=1
UVM_INFO driver.sv(46) @ 315000: uvm_test_top.env.act.drv [DRV] WDATA=2221164379, WSTRB=111, WVALID=0
UVM_INFO driver.sv(53) @ 315000: uvm_test_top.env.act.drv [DRV] ARADDR=59, ARPROT=0, ARVALID=1
UVM_INFO driver.sv(60) @ 315000: uvm_test_top.env.act.drv [DRV] BREADY=0
UVM_INFO driver.sv(65) @ 315000: uvm_test_top.env.act.drv [DRV] RREADY=0
UVM_INFO sequences.sv(55) @ 315000: uvm_test_top.env.act.sqr@@seq [SEQ] AWADDR=147048892, AWPROT=0, AWVALID=0, WDATA=1719574810, WSTRB=100, WVALID=0, ARADDR=59, ARPROT=0, ARVALID=1, RREADY=0
UVM_INFO monitor.sv(55) @ 325000: uvm_test_top.env.act.mon [uvm_test_top.env.act.mon] rst=1, AWADDR=17, AWPROT=0, AWVALID=1, WDATA=2221164379, WSTRB=7, WVALID=0, BREADY=0, ARADDR=59, ARPROT=0, ARVALID=1, RREADY=0, AWREADY=0, WREADY=0, BRESP=3, BVALID=1, ARREADY=0, ARPROT=0, RDATA=0, RRESP=3, RVALID=1
UVM_INFO monitor.sv(55) @ 325000: uvm_test_top.env.pass.mon [uvm_test_top.env.pass.mon] rst=1, AWADDR=17, AWPROT=0, AWVALID=1, WDATA=2221164379, WSTRB=7, WVALID=0, BREADY=0, ARADDR=59, ARPROT=0, ARVALID=1, RREADY=0, AWREADY=0, WREADY=0, BRESP=3, BVALID=1, ARREADY=0, ARPROT=0, RDATA=0, RRESP=3, RVALID=1
UVM_INFO scoreboard.sv(53) @ 325000: uvm_test_top.env.sc [SCOREBOARD] DUT: BRESP=3, RDATA=0, RRESP=3
REF: BRESP=3, RDATA=0, RRESP=3


UVM_INFO driver.sv(39) @ 325000: uvm_test_top.env.act.drv [DRV] AWADDR=147048892, AWPROT=0, AWVALID=0
UVM_INFO driver.sv(46) @ 325000: uvm_test_top.env.act.drv [DRV] WDATA=1719574810, WSTRB=100, WVALID=0
UVM_INFO driver.sv(53) @ 325000: uvm_test_top.env.act.drv [DRV] ARADDR=59, ARPROT=0, ARVALID=1
UVM_INFO driver.sv(60) @ 325000: uvm_test_top.env.act.drv [DRV] BREADY=1
UVM_INFO driver.sv(65) @ 325000: uvm_test_top.env.act.drv [DRV] RREADY=0
UVM_INFO sequences.sv(55) @ 325000: uvm_test_top.env.act.sqr@@seq [SEQ] AWADDR=3738939505, AWPROT=0, AWVALID=0, WDATA=3209298143, WSTRB=1011, WVALID=0, ARADDR=59, ARPROT=0, ARVALID=1, RREADY=0
UVM_INFO monitor.sv(55) @ 335000: uvm_test_top.env.act.mon [uvm_test_top.env.act.mon] rst=1, AWADDR=147048892, AWPROT=0, AWVALID=0, WDATA=1719574810, WSTRB=4, WVALID=0, BREADY=1, ARADDR=59, ARPROT=0, ARVALID=1, RREADY=0, AWREADY=0, WREADY=0, BRESP=3, BVALID=1, ARREADY=0, ARPROT=0, RDATA=0, RRESP=3, RVALID=1
UVM_INFO monitor.sv(55) @ 335000: uvm_test_top.env.pass.mon [uvm_test_top.env.pass.mon] rst=1, AWADDR=147048892, AWPROT=0, AWVALID=0, WDATA=1719574810, WSTRB=4, WVALID=0, BREADY=1, ARADDR=59, ARPROT=0, ARVALID=1, RREADY=0, AWREADY=0, WREADY=0, BRESP=3, BVALID=1, ARREADY=0, ARPROT=0, RDATA=0, RRESP=3, RVALID=1
UVM_INFO scoreboard.sv(53) @ 335000: uvm_test_top.env.sc [SCOREBOARD] DUT: BRESP=3, RDATA=0, RRESP=3
REF: BRESP=3, RDATA=0, RRESP=3


UVM_INFO driver.sv(39) @ 335000: uvm_test_top.env.act.drv [DRV] AWADDR=3738939505, AWPROT=0, AWVALID=0
UVM_INFO driver.sv(46) @ 335000: uvm_test_top.env.act.drv [DRV] WDATA=3209298143, WSTRB=1011, WVALID=0
UVM_INFO driver.sv(53) @ 335000: uvm_test_top.env.act.drv [DRV] ARADDR=59, ARPROT=0, ARVALID=1
UVM_INFO driver.sv(60) @ 335000: uvm_test_top.env.act.drv [DRV] BREADY=0
UVM_INFO driver.sv(65) @ 335000: uvm_test_top.env.act.drv [DRV] RREADY=0
UVM_INFO sequences.sv(55) @ 335000: uvm_test_top.env.act.sqr@@seq [SEQ] AWADDR=21, AWPROT=0, AWVALID=0, WDATA=2299653881, WSTRB=1100, WVALID=0, ARADDR=59, ARPROT=0, ARVALID=1, RREADY=1
UVM_INFO monitor.sv(55) @ 345000: uvm_test_top.env.act.mon [uvm_test_top.env.act.mon] rst=1, AWADDR=3738939505, AWPROT=0, AWVALID=0, WDATA=3209298143, WSTRB=11, WVALID=0, BREADY=0, ARADDR=59, ARPROT=0, ARVALID=1, RREADY=0, AWREADY=0, WREADY=0, BRESP=3, BVALID=0, ARREADY=0, ARPROT=0, RDATA=0, RRESP=3, RVALID=1
UVM_INFO monitor.sv(55) @ 345000: uvm_test_top.env.pass.mon [uvm_test_top.env.pass.mon] rst=1, AWADDR=3738939505, AWPROT=0, AWVALID=0, WDATA=3209298143, WSTRB=11, WVALID=0, BREADY=0, ARADDR=59, ARPROT=0, ARVALID=1, RREADY=0, AWREADY=0, WREADY=0, BRESP=3, BVALID=0, ARREADY=0, ARPROT=0, RDATA=0, RRESP=3, RVALID=1
UVM_INFO scoreboard.sv(53) @ 345000: uvm_test_top.env.sc [SCOREBOARD] DUT: BRESP=3, RDATA=0, RRESP=3
REF: BRESP=3, RDATA=0, RRESP=3


UVM_INFO driver.sv(39) @ 345000: uvm_test_top.env.act.drv [DRV] AWADDR=21, AWPROT=0, AWVALID=0
UVM_INFO driver.sv(46) @ 345000: uvm_test_top.env.act.drv [DRV] WDATA=2299653881, WSTRB=1100, WVALID=0
UVM_INFO driver.sv(53) @ 345000: uvm_test_top.env.act.drv [DRV] ARADDR=59, ARPROT=0, ARVALID=1
UVM_INFO driver.sv(60) @ 345000: uvm_test_top.env.act.drv [DRV] BREADY=1
UVM_INFO driver.sv(65) @ 345000: uvm_test_top.env.act.drv [DRV] RREADY=1
UVM_INFO sequences.sv(55) @ 345000: uvm_test_top.env.act.sqr@@seq [SEQ] AWADDR=28, AWPROT=0, AWVALID=1, WDATA=3816801483, WSTRB=1100, WVALID=1, ARADDR=59, ARPROT=0, ARVALID=1, RREADY=1
UVM_INFO monitor.sv(55) @ 355000: uvm_test_top.env.act.mon [uvm_test_top.env.act.mon] rst=1, AWADDR=21, AWPROT=0, AWVALID=0, WDATA=2299653881, WSTRB=12, WVALID=0, BREADY=1, ARADDR=59, ARPROT=0, ARVALID=1, RREADY=1, AWREADY=1, WREADY=1, BRESP=3, BVALID=0, ARREADY=0, ARPROT=0, RDATA=0, RRESP=3, RVALID=1
UVM_INFO monitor.sv(55) @ 355000: uvm_test_top.env.pass.mon [uvm_test_top.env.pass.mon] rst=1, AWADDR=21, AWPROT=0, AWVALID=0, WDATA=2299653881, WSTRB=12, WVALID=0, BREADY=1, ARADDR=59, ARPROT=0, ARVALID=1, RREADY=1, AWREADY=1, WREADY=1, BRESP=3, BVALID=0, ARREADY=0, ARPROT=0, RDATA=0, RRESP=3, RVALID=1
UVM_INFO scoreboard.sv(53) @ 355000: uvm_test_top.env.sc [SCOREBOARD] DUT: BRESP=3, RDATA=0, RRESP=3
REF: BRESP=3, RDATA=0, RRESP=3


UVM_INFO driver.sv(39) @ 355000: uvm_test_top.env.act.drv [DRV] AWADDR=28, AWPROT=0, AWVALID=1
UVM_INFO driver.sv(46) @ 355000: uvm_test_top.env.act.drv [DRV] WDATA=3816801483, WSTRB=1100, WVALID=1
UVM_INFO driver.sv(53) @ 355000: uvm_test_top.env.act.drv [DRV] ARADDR=59, ARPROT=0, ARVALID=1
UVM_INFO driver.sv(60) @ 355000: uvm_test_top.env.act.drv [DRV] BREADY=1
UVM_INFO driver.sv(65) @ 355000: uvm_test_top.env.act.drv [DRV] RREADY=1
UVM_INFO sequences.sv(55) @ 355000: uvm_test_top.env.act.sqr@@seq [SEQ] AWADDR=364935950, AWPROT=0, AWVALID=1, WDATA=1238099158, WSTRB=1110, WVALID=0, ARADDR=59, ARPROT=0, ARVALID=1, RREADY=1
UVM_INFO monitor.sv(55) @ 365000: uvm_test_top.env.act.mon [uvm_test_top.env.act.mon] rst=1, AWADDR=28, AWPROT=0, AWVALID=1, WDATA=3816801483, WSTRB=12, WVALID=1, BREADY=1, ARADDR=59, ARPROT=0, ARVALID=1, RREADY=1, AWREADY=1, WREADY=1, BRESP=3, BVALID=0, ARREADY=0, ARPROT=0, RDATA=0, RRESP=3, RVALID=0
UVM_INFO monitor.sv(55) @ 365000: uvm_test_top.env.pass.mon [uvm_test_top.env.pass.mon] rst=1, AWADDR=28, AWPROT=0, AWVALID=1, WDATA=3816801483, WSTRB=12, WVALID=1, BREADY=1, ARADDR=59, ARPROT=0, ARVALID=1, RREADY=1, AWREADY=1, WREADY=1, BRESP=3, BVALID=0, ARREADY=0, ARPROT=0, RDATA=0, RRESP=3, RVALID=0
UVM_INFO scoreboard.sv(53) @ 365000: uvm_test_top.env.sc [SCOREBOARD] DUT: BRESP=3, RDATA=0, RRESP=3
REF: BRESP=3, RDATA=0, RRESP=3


UVM_INFO driver.sv(39) @ 365000: uvm_test_top.env.act.drv [DRV] AWADDR=364935950, AWPROT=0, AWVALID=1
UVM_INFO driver.sv(46) @ 365000: uvm_test_top.env.act.drv [DRV] WDATA=1238099158, WSTRB=1110, WVALID=0
UVM_INFO driver.sv(53) @ 365000: uvm_test_top.env.act.drv [DRV] ARADDR=59, ARPROT=0, ARVALID=1
UVM_INFO driver.sv(60) @ 365000: uvm_test_top.env.act.drv [DRV] BREADY=1
UVM_INFO driver.sv(65) @ 365000: uvm_test_top.env.act.drv [DRV] RREADY=1
UVM_INFO sequences.sv(55) @ 365000: uvm_test_top.env.act.sqr@@seq [SEQ] AWADDR=62, AWPROT=0, AWVALID=0, WDATA=2137292195, WSTRB=1111, WVALID=1, ARADDR=59, ARPROT=0, ARVALID=1, RREADY=0
UVM_INFO monitor.sv(55) @ 375000: uvm_test_top.env.act.mon [uvm_test_top.env.act.mon] rst=1, AWADDR=364935950, AWPROT=0, AWVALID=1, WDATA=1238099158, WSTRB=14, WVALID=0, BREADY=1, ARADDR=59, ARPROT=0, ARVALID=1, RREADY=1, AWREADY=1, WREADY=1, BRESP=3, BVALID=0, ARREADY=1, ARPROT=0, RDATA=0, RRESP=3, RVALID=0
UVM_INFO monitor.sv(55) @ 375000: uvm_test_top.env.pass.mon [uvm_test_top.env.pass.mon] rst=1, AWADDR=364935950, AWPROT=0, AWVALID=1, WDATA=1238099158, WSTRB=14, WVALID=0, BREADY=1, ARADDR=59, ARPROT=0, ARVALID=1, RREADY=1, AWREADY=1, WREADY=1, BRESP=3, BVALID=0, ARREADY=1, ARPROT=0, RDATA=0, RRESP=3, RVALID=0
UVM_INFO scoreboard.sv(53) @ 375000: uvm_test_top.env.sc [SCOREBOARD] DUT: BRESP=3, RDATA=0, RRESP=3
REF: BRESP=3, RDATA=0, RRESP=3


UVM_INFO driver.sv(39) @ 375000: uvm_test_top.env.act.drv [DRV] AWADDR=62, AWPROT=0, AWVALID=0
UVM_INFO driver.sv(46) @ 375000: uvm_test_top.env.act.drv [DRV] WDATA=2137292195, WSTRB=1111, WVALID=1
UVM_INFO driver.sv(53) @ 375000: uvm_test_top.env.act.drv [DRV] ARADDR=59, ARPROT=0, ARVALID=1
UVM_INFO driver.sv(60) @ 375000: uvm_test_top.env.act.drv [DRV] BREADY=1
UVM_INFO driver.sv(65) @ 375000: uvm_test_top.env.act.drv [DRV] RREADY=0
UVM_INFO sequences.sv(49) @ 375000: uvm_test_top.env.act.sqr@@seq [SEQ] AWADDR=398296664, AWPROT=0, AWVALID=1, WDATA=45141522, WSTRB=11, WVALID=0, ARADDR=2035409463, ARPROT=0, ARVALID=0, RREADY=1
UVM_INFO monitor.sv(55) @ 385000: uvm_test_top.env.act.mon [uvm_test_top.env.act.mon] rst=1, AWADDR=62, AWPROT=0, AWVALID=0, WDATA=2137292195, WSTRB=15, WVALID=1, BREADY=1, ARADDR=59, ARPROT=0, ARVALID=1, RREADY=0, AWREADY=0, WREADY=1, BRESP=3, BVALID=0, ARREADY=0, ARPROT=0, RDATA=0, RRESP=2, RVALID=1
UVM_INFO monitor.sv(55) @ 385000: uvm_test_top.env.pass.mon [uvm_test_top.env.pass.mon] rst=1, AWADDR=62, AWPROT=0, AWVALID=0, WDATA=2137292195, WSTRB=15, WVALID=1, BREADY=1, ARADDR=59, ARPROT=0, ARVALID=1, RREADY=0, AWREADY=0, WREADY=1, BRESP=3, BVALID=0, ARREADY=0, ARPROT=0, RDATA=0, RRESP=2, RVALID=1
UVM_INFO scoreboard.sv(53) @ 385000: uvm_test_top.env.sc [SCOREBOARD] DUT: BRESP=3, RDATA=0, RRESP=2
REF: BRESP=3, RDATA=0, RRESP=2


UVM_INFO driver.sv(39) @ 385000: uvm_test_top.env.act.drv [DRV] AWADDR=398296664, AWPROT=0, AWVALID=1
UVM_INFO driver.sv(46) @ 385000: uvm_test_top.env.act.drv [DRV] WDATA=45141522, WSTRB=11, WVALID=0
UVM_INFO driver.sv(53) @ 385000: uvm_test_top.env.act.drv [DRV] ARADDR=2035409463, ARPROT=0, ARVALID=0
UVM_INFO driver.sv(60) @ 385000: uvm_test_top.env.act.drv [DRV] BREADY=1
UVM_INFO driver.sv(65) @ 385000: uvm_test_top.env.act.drv [DRV] RREADY=1
UVM_INFO sequences.sv(60) @ 385000: uvm_test_top.env.act.sqr@@seq [SEQ] AWADDR=57, AWPROT=0, AWVALID=1, WDATA=3539789722, WSTRB=1001, WVALID=1, ARADDR=2035409463, ARPROT=0, ARVALID=0, RREADY=1
UVM_INFO monitor.sv(55) @ 395000: uvm_test_top.env.act.mon [uvm_test_top.env.act.mon] rst=1, AWADDR=398296664, AWPROT=0, AWVALID=1, WDATA=45141522, WSTRB=3, WVALID=0, BREADY=1, ARADDR=2035409463, ARPROT=0, ARVALID=0, RREADY=1, AWREADY=0, WREADY=0, BRESP=3, BVALID=0, ARREADY=0, ARPROT=0, RDATA=0, RRESP=2, RVALID=1
UVM_INFO monitor.sv(55) @ 395000: uvm_test_top.env.pass.mon [uvm_test_top.env.pass.mon] rst=1, AWADDR=398296664, AWPROT=0, AWVALID=1, WDATA=45141522, WSTRB=3, WVALID=0, BREADY=1, ARADDR=2035409463, ARPROT=0, ARVALID=0, RREADY=1, AWREADY=0, WREADY=0, BRESP=3, BVALID=0, ARREADY=0, ARPROT=0, RDATA=0, RRESP=2, RVALID=1
UVM_INFO scoreboard.sv(53) @ 395000: uvm_test_top.env.sc [SCOREBOARD] DUT: BRESP=3, RDATA=0, RRESP=2
REF: BRESP=3, RDATA=0, RRESP=2


UVM_INFO driver.sv(39) @ 395000: uvm_test_top.env.act.drv [DRV] AWADDR=57, AWPROT=0, AWVALID=1
UVM_INFO driver.sv(46) @ 395000: uvm_test_top.env.act.drv [DRV] WDATA=3539789722, WSTRB=1001, WVALID=1
UVM_INFO driver.sv(53) @ 395000: uvm_test_top.env.act.drv [DRV] ARADDR=2035409463, ARPROT=0, ARVALID=0
UVM_INFO driver.sv(60) @ 395000: uvm_test_top.env.act.drv [DRV] BREADY=1
UVM_INFO driver.sv(65) @ 395000: uvm_test_top.env.act.drv [DRV] RREADY=1
UVM_INFO sequences.sv(60) @ 395000: uvm_test_top.env.act.sqr@@seq [SEQ] AWADDR=15, AWPROT=0, AWVALID=1, WDATA=1396718730, WSTRB=111, WVALID=1, ARADDR=2035409463, ARPROT=0, ARVALID=0, RREADY=1
UVM_INFO monitor.sv(55) @ 405000: uvm_test_top.env.act.mon [uvm_test_top.env.act.mon] rst=1, AWADDR=57, AWPROT=0, AWVALID=1, WDATA=3539789722, WSTRB=9, WVALID=1, BREADY=1, ARADDR=2035409463, ARPROT=0, ARVALID=0, RREADY=1, AWREADY=0, WREADY=0, BRESP=3, BVALID=1, ARREADY=0, ARPROT=0, RDATA=0, RRESP=2, RVALID=0
